            * /home/sumanto/desktop/verilog/esim/arbiter/arbiter.cir
            Transient Analysis  Mon Nov 22 21:02:46  2021
--------------------------------------------------------------------------------
Index   time            clk             gnt0            gnt1            
--------------------------------------------------------------------------------
0	0.000000e+00	0.000000e+00	0.000000e+00	0.000000e+00	
1	2.000000e-12	0.000000e+00	0.000000e+00	0.000000e+00	
2	4.000000e-12	0.000000e+00	0.000000e+00	0.000000e+00	
3	8.000000e-12	0.000000e+00	0.000000e+00	0.000000e+00	
4	1.600000e-11	0.000000e+00	0.000000e+00	0.000000e+00	
5	3.200000e-11	0.000000e+00	0.000000e+00	0.000000e+00	
6	6.400000e-11	0.000000e+00	0.000000e+00	0.000000e+00	
7	1.280000e-10	1.400000e+00	0.000000e+00	0.000000e+00	
8	2.000000e-10	5.000000e+00	0.000000e+00	0.000000e+00	
9	2.128000e-10	5.000000e+00	0.000000e+00	0.000000e+00	
10	2.384000e-10	5.000000e+00	0.000000e+00	0.000000e+00	
11	2.896000e-10	5.000000e+00	0.000000e+00	0.000000e+00	
12	3.920000e-10	5.000000e+00	0.000000e+00	0.000000e+00	
13	5.968000e-10	5.000000e+00	0.000000e+00	0.000000e+00	
14	1.006400e-09	5.000000e+00	0.000000e+00	0.000000e+00	
15	1.825600e-09	5.000000e+00	0.000000e+00	0.000000e+00	
16	3.464000e-09	5.000000e+00	0.000000e+00	0.000000e+00	
17	6.740800e-09	5.000000e+00	0.000000e+00	0.000000e+00	
18	1.329440e-08	5.000000e+00	0.000000e+00	0.000000e+00	
19	2.640160e-08	5.000000e+00	0.000000e+00	0.000000e+00	
20	5.261600e-08	5.000000e+00	0.000000e+00	0.000000e+00	
21	1.050448e-07	5.000000e+00	0.000000e+00	0.000000e+00	
22	2.099024e-07	5.000000e+00	0.000000e+00	0.000000e+00	
23	4.196176e-07	5.000000e+00	0.000000e+00	0.000000e+00	
24	8.390480e-07	5.000000e+00	0.000000e+00	0.000000e+00	
25	1.677909e-06	5.000000e+00	0.000000e+00	0.000000e+00	
26	3.355630e-06	5.000000e+00	0.000000e+00	0.000000e+00	
27	6.711074e-06	5.000000e+00	0.000000e+00	0.000000e+00	
28	1.342196e-05	5.000000e+00	0.000000e+00	0.000000e+00	
29	2.684373e-05	5.000000e+00	0.000000e+00	0.000000e+00	
30	5.368728e-05	5.000000e+00	0.000000e+00	0.000000e+00	
31	1.073744e-04	5.000000e+00	0.000000e+00	0.000000e+00	
32	2.073744e-04	5.000000e+00	0.000000e+00	0.000000e+00	
33	3.073744e-04	5.000000e+00	0.000000e+00	0.000000e+00	
34	4.073744e-04	5.000000e+00	0.000000e+00	0.000000e+00	
35	5.073744e-04	5.000000e+00	0.000000e+00	0.000000e+00	
36	6.073744e-04	5.000000e+00	0.000000e+00	0.000000e+00	
37	7.073744e-04	5.000000e+00	0.000000e+00	0.000000e+00	
38	8.073744e-04	5.000000e+00	0.000000e+00	0.000000e+00	
39	9.073744e-04	5.000000e+00	0.000000e+00	0.000000e+00	
40	1.000000e-03	5.000000e+00	0.000000e+00	0.000000e+00	
41	1.000000e-03	4.500000e+00	0.000000e+00	0.000000e+00	
42	1.000000e-03	3.500000e+00	0.000000e+00	0.000000e+00	
43	1.000000e-03	1.500000e+00	0.000000e+00	0.000000e+00	
44	1.000000e-03	0.000000e+00	0.000000e+00	0.000000e+00	
45	1.000000e-03	0.000000e+00	0.000000e+00	0.000000e+00	
46	1.000000e-03	0.000000e+00	0.000000e+00	0.000000e+00	
47	1.000000e-03	0.000000e+00	0.000000e+00	0.000000e+00	
48	1.000000e-03	0.000000e+00	0.000000e+00	0.000000e+00	
49	1.000001e-03	0.000000e+00	0.000000e+00	0.000000e+00	
50	1.000001e-03	0.000000e+00	0.000000e+00	0.000000e+00	
51	1.000001e-03	0.000000e+00	0.000000e+00	0.000000e+00	
52	1.000002e-03	0.000000e+00	0.000000e+00	0.000000e+00	
53	1.000004e-03	0.000000e+00	0.000000e+00	0.000000e+00	
54	1.000008e-03	0.000000e+00	0.000000e+00	0.000000e+00	

Index   time            clk             gnt0            gnt1            
--------------------------------------------------------------------------------
55	1.000017e-03	0.000000e+00	0.000000e+00	0.000000e+00	
56	1.000033e-03	0.000000e+00	0.000000e+00	0.000000e+00	
57	1.000066e-03	0.000000e+00	0.000000e+00	0.000000e+00	
58	1.000131e-03	0.000000e+00	0.000000e+00	0.000000e+00	
59	1.000262e-03	0.000000e+00	0.000000e+00	0.000000e+00	
60	1.000525e-03	0.000000e+00	0.000000e+00	0.000000e+00	
61	1.001049e-03	0.000000e+00	0.000000e+00	0.000000e+00	
62	1.002097e-03	0.000000e+00	0.000000e+00	0.000000e+00	
63	1.004195e-03	0.000000e+00	0.000000e+00	0.000000e+00	
64	1.008389e-03	0.000000e+00	0.000000e+00	0.000000e+00	
65	1.016778e-03	0.000000e+00	0.000000e+00	0.000000e+00	
66	1.033555e-03	0.000000e+00	0.000000e+00	0.000000e+00	
67	1.067109e-03	0.000000e+00	0.000000e+00	0.000000e+00	
68	1.134218e-03	0.000000e+00	0.000000e+00	0.000000e+00	
69	1.234218e-03	0.000000e+00	0.000000e+00	0.000000e+00	
70	1.334218e-03	0.000000e+00	0.000000e+00	0.000000e+00	
71	1.434218e-03	0.000000e+00	0.000000e+00	0.000000e+00	
72	1.534218e-03	0.000000e+00	0.000000e+00	0.000000e+00	
73	1.634218e-03	0.000000e+00	0.000000e+00	0.000000e+00	
74	1.734218e-03	0.000000e+00	0.000000e+00	0.000000e+00	
75	1.834218e-03	0.000000e+00	0.000000e+00	0.000000e+00	
76	1.934218e-03	0.000000e+00	0.000000e+00	0.000000e+00	
77	2.000000e-03	0.000000e+00	0.000000e+00	0.000000e+00	
78	2.000000e-03	5.000000e-01	0.000000e+00	0.000000e+00	
79	2.000000e-03	1.500000e+00	0.000000e+00	0.000000e+00	
80	2.000000e-03	3.500000e+00	0.000000e+00	0.000000e+00	
81	2.000000e-03	5.000000e+00	0.000000e+00	0.000000e+00	
82	2.000000e-03	5.000000e+00	0.000000e+00	0.000000e+00	
83	2.000000e-03	5.000000e+00	0.000000e+00	0.000000e+00	
84	2.000000e-03	5.000000e+00	0.000000e+00	0.000000e+00	
85	2.000000e-03	5.000000e+00	0.000000e+00	0.000000e+00	
86	2.000000e-03	5.000000e+00	0.000000e+00	0.000000e+00	
87	2.000001e-03	5.000000e+00	0.000000e+00	0.000000e+00	
88	2.000001e-03	5.000000e+00	0.000000e+00	0.000000e+00	
89	2.000002e-03	5.000000e+00	0.000000e+00	0.000000e+00	
90	2.000002e-03	5.000000e+00	0.000000e+00	0.000000e+00	
91	2.000002e-03	5.000000e+00	0.000000e+00	0.000000e+00	
92	2.000003e-03	5.000000e+00	0.000000e+00	0.000000e+00	
93	2.000003e-03	5.000000e+00	0.000000e+00	0.000000e+00	
94	2.000003e-03	5.000000e+00	0.000000e+00	0.000000e+00	
95	2.000003e-03	5.000000e+00	0.000000e+00	0.000000e+00	
96	2.000004e-03	5.000000e+00	0.000000e+00	0.000000e+00	
97	2.000004e-03	5.000000e+00	0.000000e+00	0.000000e+00	
98	2.000006e-03	5.000000e+00	0.000000e+00	0.000000e+00	
99	2.000008e-03	5.000000e+00	0.000000e+00	0.000000e+00	
100	2.000013e-03	5.000000e+00	0.000000e+00	0.000000e+00	
101	2.000024e-03	5.000000e+00	0.000000e+00	0.000000e+00	
102	2.000044e-03	5.000000e+00	0.000000e+00	0.000000e+00	
103	2.000085e-03	5.000000e+00	0.000000e+00	0.000000e+00	
104	2.000167e-03	5.000000e+00	0.000000e+00	0.000000e+00	
105	2.000331e-03	5.000000e+00	0.000000e+00	0.000000e+00	
106	2.000658e-03	5.000000e+00	0.000000e+00	0.000000e+00	
107	2.001314e-03	5.000000e+00	0.000000e+00	0.000000e+00	
108	2.002624e-03	5.000000e+00	0.000000e+00	0.000000e+00	
109	2.005246e-03	5.000000e+00	0.000000e+00	0.000000e+00	
110	2.010489e-03	5.000000e+00	0.000000e+00	0.000000e+00	
111	2.020975e-03	5.000000e+00	0.000000e+00	0.000000e+00	
112	2.041946e-03	5.000000e+00	0.000000e+00	0.000000e+00	

Index   time            clk             gnt0            gnt1            
--------------------------------------------------------------------------------
113	2.083889e-03	5.000000e+00	0.000000e+00	0.000000e+00	
114	2.167775e-03	5.000000e+00	0.000000e+00	0.000000e+00	
115	2.267775e-03	5.000000e+00	0.000000e+00	0.000000e+00	
116	2.367775e-03	5.000000e+00	0.000000e+00	0.000000e+00	
117	2.467775e-03	5.000000e+00	0.000000e+00	0.000000e+00	
118	2.567775e-03	5.000000e+00	0.000000e+00	0.000000e+00	
119	2.667775e-03	5.000000e+00	0.000000e+00	0.000000e+00	
120	2.767775e-03	5.000000e+00	0.000000e+00	0.000000e+00	
121	2.867775e-03	5.000000e+00	0.000000e+00	0.000000e+00	
122	2.967775e-03	5.000000e+00	0.000000e+00	0.000000e+00	
123	3.000000e-03	5.000000e+00	0.000000e+00	0.000000e+00	
124	3.000000e-03	4.500000e+00	0.000000e+00	0.000000e+00	
125	3.000000e-03	3.500000e+00	0.000000e+00	0.000000e+00	
126	3.000000e-03	1.500000e+00	0.000000e+00	0.000000e+00	
127	3.000000e-03	0.000000e+00	0.000000e+00	0.000000e+00	
128	3.000000e-03	0.000000e+00	0.000000e+00	0.000000e+00	
129	3.000000e-03	0.000000e+00	0.000000e+00	0.000000e+00	
130	3.000000e-03	0.000000e+00	0.000000e+00	0.000000e+00	
131	3.000000e-03	0.000000e+00	0.000000e+00	0.000000e+00	
132	3.000001e-03	0.000000e+00	0.000000e+00	0.000000e+00	
133	3.000001e-03	0.000000e+00	0.000000e+00	0.000000e+00	
134	3.000001e-03	0.000000e+00	0.000000e+00	0.000000e+00	
135	3.000002e-03	0.000000e+00	0.000000e+00	0.000000e+00	
136	3.000004e-03	0.000000e+00	0.000000e+00	0.000000e+00	
137	3.000008e-03	0.000000e+00	0.000000e+00	0.000000e+00	
138	3.000017e-03	0.000000e+00	0.000000e+00	0.000000e+00	
139	3.000033e-03	0.000000e+00	0.000000e+00	0.000000e+00	
140	3.000066e-03	0.000000e+00	0.000000e+00	0.000000e+00	
141	3.000131e-03	0.000000e+00	0.000000e+00	0.000000e+00	
142	3.000262e-03	0.000000e+00	0.000000e+00	0.000000e+00	
143	3.000525e-03	0.000000e+00	0.000000e+00	0.000000e+00	
144	3.001049e-03	0.000000e+00	0.000000e+00	0.000000e+00	
145	3.002097e-03	0.000000e+00	0.000000e+00	0.000000e+00	
146	3.004195e-03	0.000000e+00	0.000000e+00	0.000000e+00	
147	3.008389e-03	0.000000e+00	0.000000e+00	0.000000e+00	
148	3.016778e-03	0.000000e+00	0.000000e+00	0.000000e+00	
149	3.033555e-03	0.000000e+00	0.000000e+00	0.000000e+00	
150	3.067109e-03	0.000000e+00	0.000000e+00	0.000000e+00	
151	3.134218e-03	0.000000e+00	0.000000e+00	0.000000e+00	
152	3.234218e-03	0.000000e+00	0.000000e+00	0.000000e+00	
153	3.334218e-03	0.000000e+00	0.000000e+00	0.000000e+00	
154	3.434218e-03	0.000000e+00	0.000000e+00	0.000000e+00	
155	3.534218e-03	0.000000e+00	0.000000e+00	0.000000e+00	
156	3.634218e-03	0.000000e+00	0.000000e+00	0.000000e+00	
157	3.734218e-03	0.000000e+00	0.000000e+00	0.000000e+00	
158	3.834218e-03	0.000000e+00	0.000000e+00	0.000000e+00	
159	3.934218e-03	0.000000e+00	0.000000e+00	0.000000e+00	
160	4.000000e-03	0.000000e+00	0.000000e+00	0.000000e+00	
161	4.000000e-03	5.000000e-01	0.000000e+00	0.000000e+00	
162	4.000000e-03	1.500000e+00	0.000000e+00	0.000000e+00	
163	4.000000e-03	3.500000e+00	0.000000e+00	0.000000e+00	
164	4.000000e-03	5.000000e+00	0.000000e+00	0.000000e+00	
165	4.000000e-03	5.000000e+00	0.000000e+00	0.000000e+00	
166	4.000000e-03	5.000000e+00	0.000000e+00	0.000000e+00	
167	4.000000e-03	5.000000e+00	0.000000e+00	0.000000e+00	
168	4.000000e-03	5.000000e+00	0.000000e+00	0.000000e+00	
169	4.000000e-03	5.000000e+00	0.000000e+00	0.000000e+00	
170	4.000001e-03	5.000000e+00	0.000000e+00	0.000000e+00	

Index   time            clk             gnt0            gnt1            
--------------------------------------------------------------------------------
171	4.000001e-03	5.000000e+00	0.000000e+00	0.000000e+00	
172	4.000002e-03	5.000000e+00	0.000000e+00	0.000000e+00	
173	4.000002e-03	5.000000e+00	5.000000e-01	0.000000e+00	
174	4.000002e-03	5.000000e+00	1.500000e+00	0.000000e+00	
175	4.000003e-03	5.000000e+00	3.500000e+00	0.000000e+00	
176	4.000003e-03	5.000000e+00	5.000000e+00	0.000000e+00	
177	4.000003e-03	5.000000e+00	5.000000e+00	0.000000e+00	
178	4.000003e-03	5.000000e+00	5.000000e+00	0.000000e+00	
179	4.000004e-03	5.000000e+00	5.000000e+00	0.000000e+00	
180	4.000004e-03	5.000000e+00	5.000000e+00	0.000000e+00	
181	4.000006e-03	5.000000e+00	5.000000e+00	0.000000e+00	
182	4.000008e-03	5.000000e+00	5.000000e+00	0.000000e+00	
183	4.000013e-03	5.000000e+00	5.000000e+00	0.000000e+00	
184	4.000024e-03	5.000000e+00	5.000000e+00	0.000000e+00	
185	4.000044e-03	5.000000e+00	5.000000e+00	0.000000e+00	
186	4.000085e-03	5.000000e+00	5.000000e+00	0.000000e+00	
187	4.000167e-03	5.000000e+00	5.000000e+00	0.000000e+00	
188	4.000331e-03	5.000000e+00	5.000000e+00	0.000000e+00	
189	4.000658e-03	5.000000e+00	5.000000e+00	0.000000e+00	
190	4.001314e-03	5.000000e+00	5.000000e+00	0.000000e+00	
191	4.002624e-03	5.000000e+00	5.000000e+00	0.000000e+00	
192	4.005246e-03	5.000000e+00	5.000000e+00	0.000000e+00	
193	4.010489e-03	5.000000e+00	5.000000e+00	0.000000e+00	
194	4.020975e-03	5.000000e+00	5.000000e+00	0.000000e+00	
195	4.041946e-03	5.000000e+00	5.000000e+00	0.000000e+00	
196	4.083889e-03	5.000000e+00	5.000000e+00	0.000000e+00	
197	4.167775e-03	5.000000e+00	5.000000e+00	0.000000e+00	
198	4.267775e-03	5.000000e+00	5.000000e+00	0.000000e+00	
199	4.367775e-03	5.000000e+00	5.000000e+00	0.000000e+00	
200	4.467775e-03	5.000000e+00	5.000000e+00	0.000000e+00	
201	4.567775e-03	5.000000e+00	5.000000e+00	0.000000e+00	
202	4.667775e-03	5.000000e+00	5.000000e+00	0.000000e+00	
203	4.767775e-03	5.000000e+00	5.000000e+00	0.000000e+00	
204	4.867775e-03	5.000000e+00	5.000000e+00	0.000000e+00	
205	4.967775e-03	5.000000e+00	5.000000e+00	0.000000e+00	
206	5.067775e-03	0.000000e+00	5.000000e+00	0.000000e+00	
207	5.167775e-03	0.000000e+00	5.000000e+00	0.000000e+00	
208	5.267775e-03	0.000000e+00	5.000000e+00	0.000000e+00	
209	5.367775e-03	0.000000e+00	5.000000e+00	0.000000e+00	
210	5.467775e-03	0.000000e+00	5.000000e+00	0.000000e+00	
211	5.567775e-03	0.000000e+00	5.000000e+00	0.000000e+00	
212	5.667775e-03	0.000000e+00	5.000000e+00	0.000000e+00	
213	5.767775e-03	0.000000e+00	5.000000e+00	0.000000e+00	
214	5.867775e-03	0.000000e+00	5.000000e+00	0.000000e+00	
215	5.967775e-03	0.000000e+00	5.000000e+00	0.000000e+00	
216	6.067775e-03	5.000000e+00	5.000000e+00	0.000000e+00	
217	6.067777e-03	5.000000e+00	5.000000e+00	0.000000e+00	
218	6.067777e-03	5.000000e+00	4.500000e+00	5.000000e-01	
219	6.067778e-03	5.000000e+00	3.500000e+00	1.500000e+00	
220	6.067778e-03	5.000000e+00	1.500000e+00	3.500000e+00	
221	6.067778e-03	5.000000e+00	2.631779e-09	5.000000e+00	
222	6.067778e-03	5.000000e+00	0.000000e+00	5.000000e+00	
223	6.067778e-03	5.000000e+00	0.000000e+00	5.000000e+00	
224	6.067779e-03	5.000000e+00	0.000000e+00	5.000000e+00	
225	6.067779e-03	5.000000e+00	0.000000e+00	5.000000e+00	
226	6.067781e-03	5.000000e+00	0.000000e+00	5.000000e+00	
227	6.067783e-03	5.000000e+00	0.000000e+00	5.000000e+00	
228	6.067788e-03	5.000000e+00	0.000000e+00	5.000000e+00	

Index   time            clk             gnt0            gnt1            
--------------------------------------------------------------------------------
229	6.067799e-03	5.000000e+00	0.000000e+00	5.000000e+00	
230	6.067819e-03	5.000000e+00	0.000000e+00	5.000000e+00	
231	6.067860e-03	5.000000e+00	0.000000e+00	5.000000e+00	
232	6.067942e-03	5.000000e+00	0.000000e+00	5.000000e+00	
233	6.068106e-03	5.000000e+00	0.000000e+00	5.000000e+00	
234	6.068433e-03	5.000000e+00	0.000000e+00	5.000000e+00	
235	6.069089e-03	5.000000e+00	0.000000e+00	5.000000e+00	
236	6.070400e-03	5.000000e+00	0.000000e+00	5.000000e+00	
237	6.073021e-03	5.000000e+00	0.000000e+00	5.000000e+00	
238	6.078264e-03	5.000000e+00	0.000000e+00	5.000000e+00	
239	6.088750e-03	5.000000e+00	0.000000e+00	5.000000e+00	
240	6.109721e-03	5.000000e+00	0.000000e+00	5.000000e+00	
241	6.151664e-03	5.000000e+00	0.000000e+00	5.000000e+00	
242	6.235550e-03	5.000000e+00	0.000000e+00	5.000000e+00	
243	6.335550e-03	5.000000e+00	0.000000e+00	5.000000e+00	
244	6.435550e-03	5.000000e+00	0.000000e+00	5.000000e+00	
245	6.535550e-03	5.000000e+00	0.000000e+00	5.000000e+00	
246	6.635550e-03	5.000000e+00	0.000000e+00	5.000000e+00	
247	6.735550e-03	5.000000e+00	0.000000e+00	5.000000e+00	
248	6.835550e-03	5.000000e+00	0.000000e+00	5.000000e+00	
249	6.935550e-03	5.000000e+00	0.000000e+00	5.000000e+00	
250	7.035550e-03	0.000000e+00	0.000000e+00	5.000000e+00	
251	7.135550e-03	0.000000e+00	0.000000e+00	5.000000e+00	
252	7.235550e-03	0.000000e+00	0.000000e+00	5.000000e+00	
253	7.335550e-03	0.000000e+00	0.000000e+00	5.000000e+00	
254	7.435550e-03	0.000000e+00	0.000000e+00	5.000000e+00	
255	7.535550e-03	0.000000e+00	0.000000e+00	5.000000e+00	
256	7.635550e-03	0.000000e+00	0.000000e+00	5.000000e+00	
257	7.735550e-03	0.000000e+00	0.000000e+00	5.000000e+00	
258	7.835550e-03	0.000000e+00	0.000000e+00	5.000000e+00	
259	7.935550e-03	0.000000e+00	0.000000e+00	5.000000e+00	
260	8.035550e-03	5.000000e+00	0.000000e+00	5.000000e+00	
261	8.035552e-03	5.000000e+00	0.000000e+00	5.000000e+00	
262	8.035552e-03	5.000000e+00	0.000000e+00	5.000000e+00	
263	8.035553e-03	5.000000e+00	0.000000e+00	5.000000e+00	
264	8.035553e-03	5.000000e+00	0.000000e+00	5.000000e+00	
265	8.035553e-03	5.000000e+00	0.000000e+00	5.000000e+00	
266	8.035553e-03	5.000000e+00	0.000000e+00	5.000000e+00	
267	8.035554e-03	5.000000e+00	0.000000e+00	5.000000e+00	
268	8.035554e-03	5.000000e+00	0.000000e+00	5.000000e+00	
269	8.035554e-03	5.000000e+00	0.000000e+00	5.000000e+00	
270	8.035556e-03	5.000000e+00	0.000000e+00	5.000000e+00	
271	8.035558e-03	5.000000e+00	0.000000e+00	5.000000e+00	
272	8.035563e-03	5.000000e+00	0.000000e+00	5.000000e+00	
273	8.035574e-03	5.000000e+00	0.000000e+00	5.000000e+00	
274	8.035594e-03	5.000000e+00	0.000000e+00	5.000000e+00	
275	8.035635e-03	5.000000e+00	0.000000e+00	5.000000e+00	
276	8.035717e-03	5.000000e+00	0.000000e+00	5.000000e+00	
277	8.035881e-03	5.000000e+00	0.000000e+00	5.000000e+00	
278	8.036209e-03	5.000000e+00	0.000000e+00	5.000000e+00	
279	8.036864e-03	5.000000e+00	0.000000e+00	5.000000e+00	
280	8.038175e-03	5.000000e+00	0.000000e+00	5.000000e+00	
281	8.040796e-03	5.000000e+00	0.000000e+00	5.000000e+00	
282	8.046039e-03	5.000000e+00	0.000000e+00	5.000000e+00	
283	8.056525e-03	5.000000e+00	0.000000e+00	5.000000e+00	
284	8.077496e-03	5.000000e+00	0.000000e+00	5.000000e+00	
285	8.119439e-03	5.000000e+00	0.000000e+00	5.000000e+00	
286	8.203325e-03	5.000000e+00	0.000000e+00	5.000000e+00	

Index   time            clk             gnt0            gnt1            
--------------------------------------------------------------------------------
287	8.303325e-03	5.000000e+00	0.000000e+00	5.000000e+00	
288	8.403325e-03	5.000000e+00	0.000000e+00	5.000000e+00	
289	8.503325e-03	5.000000e+00	0.000000e+00	5.000000e+00	
290	8.603325e-03	5.000000e+00	0.000000e+00	5.000000e+00	
291	8.703325e-03	5.000000e+00	0.000000e+00	5.000000e+00	
292	8.803325e-03	5.000000e+00	0.000000e+00	5.000000e+00	
293	8.903325e-03	5.000000e+00	0.000000e+00	5.000000e+00	
294	9.003325e-03	0.000000e+00	0.000000e+00	5.000000e+00	
295	9.103325e-03	0.000000e+00	0.000000e+00	5.000000e+00	
296	9.203325e-03	0.000000e+00	0.000000e+00	5.000000e+00	
297	9.303325e-03	0.000000e+00	0.000000e+00	5.000000e+00	
298	9.403325e-03	0.000000e+00	0.000000e+00	5.000000e+00	
299	9.503325e-03	0.000000e+00	0.000000e+00	5.000000e+00	
300	9.603325e-03	0.000000e+00	0.000000e+00	5.000000e+00	
301	9.703325e-03	0.000000e+00	0.000000e+00	5.000000e+00	
302	9.803325e-03	0.000000e+00	0.000000e+00	5.000000e+00	
303	9.903325e-03	0.000000e+00	0.000000e+00	5.000000e+00	
304	1.000333e-02	5.000000e+00	0.000000e+00	5.000000e+00	
305	1.000333e-02	5.000000e+00	0.000000e+00	5.000000e+00	
306	1.000333e-02	5.000000e+00	0.000000e+00	4.500000e+00	
307	1.000333e-02	5.000000e+00	0.000000e+00	3.500000e+00	
308	1.000333e-02	5.000000e+00	0.000000e+00	1.500000e+00	
309	1.000333e-02	5.000000e+00	0.000000e+00	2.631779e-09	
310	1.000333e-02	5.000000e+00	0.000000e+00	0.000000e+00	
311	1.000333e-02	5.000000e+00	0.000000e+00	0.000000e+00	
312	1.000333e-02	5.000000e+00	0.000000e+00	0.000000e+00	
313	1.000333e-02	5.000000e+00	0.000000e+00	0.000000e+00	
314	1.000333e-02	5.000000e+00	0.000000e+00	0.000000e+00	
315	1.000333e-02	5.000000e+00	0.000000e+00	0.000000e+00	
316	1.000334e-02	5.000000e+00	0.000000e+00	0.000000e+00	
317	1.000335e-02	5.000000e+00	0.000000e+00	0.000000e+00	
318	1.000337e-02	5.000000e+00	0.000000e+00	0.000000e+00	
319	1.000341e-02	5.000000e+00	0.000000e+00	0.000000e+00	
320	1.000349e-02	5.000000e+00	0.000000e+00	0.000000e+00	
321	1.000366e-02	5.000000e+00	0.000000e+00	0.000000e+00	
322	1.000398e-02	5.000000e+00	0.000000e+00	0.000000e+00	
323	1.000464e-02	5.000000e+00	0.000000e+00	0.000000e+00	
324	1.000595e-02	5.000000e+00	0.000000e+00	0.000000e+00	
325	1.000857e-02	5.000000e+00	0.000000e+00	0.000000e+00	
326	1.001381e-02	5.000000e+00	0.000000e+00	0.000000e+00	
327	1.002430e-02	5.000000e+00	0.000000e+00	0.000000e+00	
328	1.004527e-02	5.000000e+00	0.000000e+00	0.000000e+00	
329	1.008721e-02	5.000000e+00	0.000000e+00	0.000000e+00	
330	1.017110e-02	5.000000e+00	0.000000e+00	0.000000e+00	
331	1.027110e-02	5.000000e+00	0.000000e+00	0.000000e+00	
