                * /home/sumanto/desktop/verilog/esim/i2c/i2c.cir
                Transient Analysis  Mon Nov 22 20:50:04  2021
--------------------------------------------------------------------------------
Index   time            net-_u3-pad1_   net-_u3-pad2_   net-_u3-pad3_   
--------------------------------------------------------------------------------
0	0.000000e+00	5.000000e+00	0.000000e+00	0.000000e+00	
1	1.000000e-12	5.000000e+00	0.000000e+00	0.000000e+00	
2	2.000000e-12	5.000000e+00	0.000000e+00	0.000000e+00	
3	4.000000e-12	5.000000e+00	0.000000e+00	0.000000e+00	
4	8.000000e-12	5.000000e+00	0.000000e+00	0.000000e+00	
5	1.600000e-11	5.000000e+00	0.000000e+00	0.000000e+00	
6	3.200000e-11	5.000000e+00	0.000000e+00	0.000000e+00	
7	6.400000e-11	5.000000e+00	0.000000e+00	0.000000e+00	
8	1.000000e-10	5.000000e+00	0.000000e+00	0.000000e+00	
9	1.064000e-10	4.680000e+00	0.000000e+00	0.000000e+00	
10	1.192000e-10	4.040000e+00	0.000000e+00	0.000000e+00	
11	1.448000e-10	2.760000e+00	0.000000e+00	0.000000e+00	
12	1.960000e-10	2.000000e-01	0.000000e+00	0.000000e+00	
13	2.984000e-10	0.000000e+00	0.000000e+00	0.000000e+00	
14	5.032000e-10	0.000000e+00	0.000000e+00	0.000000e+00	
15	9.128000e-10	0.000000e+00	0.000000e+00	0.000000e+00	
16	1.732000e-09	0.000000e+00	0.000000e+00	0.000000e+00	
17	3.370400e-09	0.000000e+00	0.000000e+00	0.000000e+00	
18	6.647200e-09	0.000000e+00	0.000000e+00	0.000000e+00	
19	1.320080e-08	0.000000e+00	0.000000e+00	0.000000e+00	
20	2.630800e-08	0.000000e+00	0.000000e+00	0.000000e+00	
21	5.252240e-08	0.000000e+00	0.000000e+00	0.000000e+00	
22	1.049512e-07	0.000000e+00	0.000000e+00	0.000000e+00	
23	2.098088e-07	0.000000e+00	0.000000e+00	0.000000e+00	
24	4.195240e-07	0.000000e+00	0.000000e+00	0.000000e+00	
25	8.389544e-07	0.000000e+00	0.000000e+00	0.000000e+00	
26	1.677815e-06	0.000000e+00	0.000000e+00	0.000000e+00	
27	3.355537e-06	0.000000e+00	0.000000e+00	0.000000e+00	
28	6.710980e-06	0.000000e+00	0.000000e+00	0.000000e+00	
29	1.342187e-05	0.000000e+00	0.000000e+00	0.000000e+00	
30	2.684364e-05	0.000000e+00	0.000000e+00	0.000000e+00	
31	5.368718e-05	0.000000e+00	0.000000e+00	0.000000e+00	
32	1.073743e-04	0.000000e+00	0.000000e+00	0.000000e+00	
33	2.147485e-04	0.000000e+00	0.000000e+00	0.000000e+00	
34	4.294968e-04	0.000000e+00	0.000000e+00	0.000000e+00	
35	8.589936e-04	0.000000e+00	0.000000e+00	0.000000e+00	
36	1.717987e-03	0.000000e+00	0.000000e+00	0.000000e+00	
37	3.435974e-03	0.000000e+00	0.000000e+00	0.000000e+00	
38	6.871948e-03	0.000000e+00	0.000000e+00	0.000000e+00	
39	1.374390e-02	0.000000e+00	0.000000e+00	0.000000e+00	
40	2.748779e-02	0.000000e+00	0.000000e+00	0.000000e+00	
41	5.497558e-02	0.000000e+00	0.000000e+00	0.000000e+00	
42	1.099512e-01	0.000000e+00	0.000000e+00	0.000000e+00	
43	2.099512e-01	0.000000e+00	0.000000e+00	0.000000e+00	
44	3.099512e-01	0.000000e+00	0.000000e+00	0.000000e+00	
45	4.099512e-01	0.000000e+00	0.000000e+00	0.000000e+00	
46	5.099512e-01	0.000000e+00	0.000000e+00	0.000000e+00	
47	6.099512e-01	0.000000e+00	0.000000e+00	0.000000e+00	
48	7.099512e-01	0.000000e+00	0.000000e+00	0.000000e+00	
49	8.099512e-01	0.000000e+00	0.000000e+00	0.000000e+00	
50	9.099512e-01	0.000000e+00	0.000000e+00	0.000000e+00	
51	1.000000e+00	0.000000e+00	0.000000e+00	0.000000e+00	
52	1.000000e+00	0.000000e+00	5.000000e-01	5.000000e-01	
53	1.000000e+00	0.000000e+00	1.500000e+00	1.500000e+00	
54	1.000000e+00	0.000000e+00	3.500000e+00	3.500000e+00	

Index   time            net-_u3-pad1_   net-_u3-pad2_   net-_u3-pad3_   
--------------------------------------------------------------------------------
55	1.000000e+00	0.000000e+00	5.000000e+00	5.000000e+00	
56	1.000000e+00	0.000000e+00	5.000000e+00	5.000000e+00	
57	1.000000e+00	0.000000e+00	5.000000e+00	5.000000e+00	
58	1.000000e+00	0.000000e+00	5.000000e+00	5.000000e+00	
59	1.000000e+00	1.000000e+00	5.000000e+00	5.000000e+00	
60	1.000000e+00	5.000000e+00	5.000000e+00	5.000000e+00	
61	1.000000e+00	5.000000e+00	5.000000e+00	5.000000e+00	
62	1.000000e+00	5.000000e+00	5.000000e+00	5.000000e+00	
63	1.000000e+00	5.000000e+00	5.000000e+00	5.000000e+00	
64	1.000000e+00	5.000000e+00	5.000000e+00	5.000000e+00	
65	1.000000e+00	5.000000e+00	5.000000e+00	5.000000e+00	
66	1.000000e+00	5.000000e+00	5.000000e+00	5.000000e+00	
67	1.000000e+00	5.000000e+00	5.000000e+00	5.000000e+00	
68	1.000000e+00	5.000000e+00	5.000000e+00	5.000000e+00	
69	1.000000e+00	5.000000e+00	5.000000e+00	5.000000e+00	
70	1.000000e+00	5.000000e+00	5.000000e+00	5.000000e+00	
71	1.000000e+00	5.000000e+00	5.000000e+00	5.000000e+00	
72	1.000000e+00	5.000000e+00	5.000000e+00	5.000000e+00	
73	1.000000e+00	5.000000e+00	5.000000e+00	5.000000e+00	
74	1.000000e+00	5.000000e+00	5.000000e+00	5.000000e+00	
75	1.000000e+00	5.000000e+00	5.000000e+00	5.000000e+00	
76	1.000001e+00	5.000000e+00	5.000000e+00	5.000000e+00	
77	1.000002e+00	5.000000e+00	5.000000e+00	5.000000e+00	
78	1.000003e+00	5.000000e+00	5.000000e+00	5.000000e+00	
79	1.000007e+00	5.000000e+00	5.000000e+00	5.000000e+00	
80	1.000013e+00	5.000000e+00	5.000000e+00	5.000000e+00	
81	1.000027e+00	5.000000e+00	5.000000e+00	5.000000e+00	
82	1.000054e+00	5.000000e+00	5.000000e+00	5.000000e+00	
83	1.000107e+00	5.000000e+00	5.000000e+00	5.000000e+00	
84	1.000215e+00	5.000000e+00	5.000000e+00	5.000000e+00	
85	1.000429e+00	5.000000e+00	5.000000e+00	5.000000e+00	
86	1.000859e+00	5.000000e+00	5.000000e+00	5.000000e+00	
87	1.001718e+00	5.000000e+00	5.000000e+00	5.000000e+00	
88	1.003436e+00	5.000000e+00	5.000000e+00	5.000000e+00	
89	1.006872e+00	5.000000e+00	5.000000e+00	5.000000e+00	
90	1.013744e+00	5.000000e+00	5.000000e+00	5.000000e+00	
91	1.027488e+00	5.000000e+00	5.000000e+00	5.000000e+00	
92	1.054976e+00	5.000000e+00	5.000000e+00	5.000000e+00	
93	1.109951e+00	5.000000e+00	5.000000e+00	5.000000e+00	
94	1.209951e+00	5.000000e+00	5.000000e+00	5.000000e+00	
95	1.309951e+00	5.000000e+00	5.000000e+00	5.000000e+00	
96	1.409951e+00	5.000000e+00	5.000000e+00	5.000000e+00	
97	1.509951e+00	5.000000e+00	5.000000e+00	5.000000e+00	
98	1.609951e+00	5.000000e+00	5.000000e+00	5.000000e+00	
99	1.709951e+00	5.000000e+00	5.000000e+00	5.000000e+00	
100	1.809951e+00	5.000000e+00	5.000000e+00	5.000000e+00	
101	1.909951e+00	5.000000e+00	5.000000e+00	5.000000e+00	
102	2.000000e+00	5.000000e+00	5.000000e+00	5.000000e+00	
103	2.000000e+00	4.500000e+00	4.500000e+00	4.500000e+00	
104	2.000000e+00	3.500000e+00	3.500000e+00	3.500000e+00	
105	2.000000e+00	1.500000e+00	1.500000e+00	1.500000e+00	
106	2.000000e+00	0.000000e+00	0.000000e+00	0.000000e+00	
107	2.000000e+00	0.000000e+00	0.000000e+00	0.000000e+00	
108	2.000000e+00	0.000000e+00	0.000000e+00	0.000000e+00	
109	2.000000e+00	0.000000e+00	0.000000e+00	0.000000e+00	
110	2.000000e+00	0.000000e+00	0.000000e+00	0.000000e+00	
111	2.000000e+00	0.000000e+00	0.000000e+00	0.000000e+00	
112	2.000000e+00	0.000000e+00	0.000000e+00	0.000000e+00	

Index   time            net-_u3-pad1_   net-_u3-pad2_   net-_u3-pad3_   
--------------------------------------------------------------------------------
113	2.000000e+00	0.000000e+00	0.000000e+00	0.000000e+00	
114	2.000000e+00	0.000000e+00	0.000000e+00	0.000000e+00	
115	2.000000e+00	0.000000e+00	0.000000e+00	0.000000e+00	
116	2.000000e+00	0.000000e+00	0.000000e+00	0.000000e+00	
117	2.000000e+00	0.000000e+00	0.000000e+00	0.000000e+00	
118	2.000000e+00	0.000000e+00	0.000000e+00	0.000000e+00	
119	2.000000e+00	0.000000e+00	0.000000e+00	0.000000e+00	
120	2.000000e+00	0.000000e+00	0.000000e+00	0.000000e+00	
121	2.000000e+00	0.000000e+00	0.000000e+00	0.000000e+00	
122	2.000001e+00	0.000000e+00	0.000000e+00	0.000000e+00	
123	2.000001e+00	0.000000e+00	0.000000e+00	0.000000e+00	
124	2.000002e+00	0.000000e+00	0.000000e+00	0.000000e+00	
125	2.000004e+00	0.000000e+00	0.000000e+00	0.000000e+00	
126	2.000008e+00	0.000000e+00	0.000000e+00	0.000000e+00	
127	2.000017e+00	0.000000e+00	0.000000e+00	0.000000e+00	
128	2.000034e+00	0.000000e+00	0.000000e+00	0.000000e+00	
129	2.000067e+00	0.000000e+00	0.000000e+00	0.000000e+00	
130	2.000134e+00	0.000000e+00	0.000000e+00	0.000000e+00	
131	2.000268e+00	0.000000e+00	0.000000e+00	0.000000e+00	
132	2.000537e+00	0.000000e+00	0.000000e+00	0.000000e+00	
133	2.001074e+00	0.000000e+00	0.000000e+00	0.000000e+00	
134	2.002147e+00	0.000000e+00	0.000000e+00	0.000000e+00	
135	2.004295e+00	0.000000e+00	0.000000e+00	0.000000e+00	
136	2.008590e+00	0.000000e+00	0.000000e+00	0.000000e+00	
137	2.017180e+00	0.000000e+00	0.000000e+00	0.000000e+00	
138	2.034360e+00	0.000000e+00	0.000000e+00	0.000000e+00	
139	2.068719e+00	0.000000e+00	0.000000e+00	0.000000e+00	
140	2.137439e+00	0.000000e+00	0.000000e+00	0.000000e+00	
141	2.237439e+00	0.000000e+00	0.000000e+00	0.000000e+00	
142	2.337439e+00	0.000000e+00	0.000000e+00	0.000000e+00	
143	2.437439e+00	0.000000e+00	0.000000e+00	0.000000e+00	
144	2.537439e+00	0.000000e+00	0.000000e+00	0.000000e+00	
145	2.637439e+00	0.000000e+00	0.000000e+00	0.000000e+00	
146	2.737439e+00	0.000000e+00	0.000000e+00	0.000000e+00	
147	2.837439e+00	0.000000e+00	0.000000e+00	0.000000e+00	
148	2.937439e+00	0.000000e+00	0.000000e+00	0.000000e+00	
149	3.000000e+00	0.000000e+00	0.000000e+00	0.000000e+00	
150	3.000000e+00	0.000000e+00	0.000000e+00	0.000000e+00	
151	3.000000e+00	0.000000e+00	0.000000e+00	0.000000e+00	
152	3.000000e+00	0.000000e+00	0.000000e+00	0.000000e+00	
153	3.000000e+00	0.000000e+00	0.000000e+00	0.000000e+00	
154	3.000000e+00	0.000000e+00	0.000000e+00	0.000000e+00	
155	3.000000e+00	0.000000e+00	0.000000e+00	0.000000e+00	
156	3.000000e+00	0.000000e+00	0.000000e+00	0.000000e+00	
157	3.000000e+00	0.000000e+00	0.000000e+00	0.000000e+00	
158	3.000000e+00	3.200107e-01	0.000000e+00	0.000000e+00	
159	3.000000e+00	9.600098e-01	0.000000e+00	0.000000e+00	
160	3.000000e+00	2.240008e+00	0.000000e+00	0.000000e+00	
161	3.000000e+00	4.800005e+00	0.000000e+00	0.000000e+00	
162	3.000000e+00	5.000000e+00	0.000000e+00	0.000000e+00	
163	3.000000e+00	5.000000e+00	0.000000e+00	0.000000e+00	
164	3.000000e+00	5.000000e+00	0.000000e+00	0.000000e+00	
165	3.000000e+00	5.000000e+00	0.000000e+00	0.000000e+00	
166	3.000000e+00	5.000000e+00	0.000000e+00	0.000000e+00	
167	3.000000e+00	5.000000e+00	0.000000e+00	0.000000e+00	
168	3.000000e+00	5.000000e+00	0.000000e+00	0.000000e+00	
169	3.000000e+00	5.000000e+00	0.000000e+00	0.000000e+00	
170	3.000000e+00	5.000000e+00	0.000000e+00	0.000000e+00	

Index   time            net-_u3-pad1_   net-_u3-pad2_   net-_u3-pad3_   
--------------------------------------------------------------------------------
171	3.000000e+00	5.000000e+00	0.000000e+00	0.000000e+00	
172	3.000000e+00	5.000000e+00	0.000000e+00	0.000000e+00	
173	3.000000e+00	5.000000e+00	0.000000e+00	0.000000e+00	
174	3.000001e+00	5.000000e+00	0.000000e+00	0.000000e+00	
175	3.000002e+00	5.000000e+00	0.000000e+00	0.000000e+00	
176	3.000003e+00	5.000000e+00	0.000000e+00	0.000000e+00	
177	3.000007e+00	5.000000e+00	0.000000e+00	0.000000e+00	
178	3.000013e+00	5.000000e+00	0.000000e+00	0.000000e+00	
179	3.000027e+00	5.000000e+00	0.000000e+00	0.000000e+00	
180	3.000054e+00	5.000000e+00	0.000000e+00	0.000000e+00	
181	3.000107e+00	5.000000e+00	0.000000e+00	0.000000e+00	
182	3.000215e+00	5.000000e+00	0.000000e+00	0.000000e+00	
183	3.000429e+00	5.000000e+00	0.000000e+00	0.000000e+00	
184	3.000859e+00	5.000000e+00	0.000000e+00	0.000000e+00	
185	3.001718e+00	5.000000e+00	0.000000e+00	0.000000e+00	
186	3.003436e+00	5.000000e+00	0.000000e+00	0.000000e+00	
187	3.006872e+00	5.000000e+00	0.000000e+00	0.000000e+00	
188	3.013744e+00	5.000000e+00	0.000000e+00	0.000000e+00	
189	3.027488e+00	5.000000e+00	0.000000e+00	0.000000e+00	
190	3.054976e+00	5.000000e+00	0.000000e+00	0.000000e+00	
191	3.109951e+00	5.000000e+00	0.000000e+00	0.000000e+00	
192	3.209951e+00	5.000000e+00	0.000000e+00	0.000000e+00	
193	3.309951e+00	5.000000e+00	0.000000e+00	0.000000e+00	
194	3.409951e+00	5.000000e+00	0.000000e+00	0.000000e+00	
195	3.509951e+00	5.000000e+00	0.000000e+00	0.000000e+00	
196	3.609951e+00	5.000000e+00	0.000000e+00	0.000000e+00	
197	3.709951e+00	5.000000e+00	0.000000e+00	0.000000e+00	
198	3.809951e+00	5.000000e+00	0.000000e+00	0.000000e+00	
199	3.909951e+00	5.000000e+00	0.000000e+00	0.000000e+00	
200	4.000000e+00	5.000000e+00	0.000000e+00	0.000000e+00	
201	4.000000e+00	4.500000e+00	0.000000e+00	0.000000e+00	
202	4.000000e+00	3.500000e+00	0.000000e+00	0.000000e+00	
203	4.000000e+00	1.500000e+00	0.000000e+00	0.000000e+00	
204	4.000000e+00	0.000000e+00	0.000000e+00	0.000000e+00	
205	4.000000e+00	0.000000e+00	0.000000e+00	0.000000e+00	
206	4.000000e+00	0.000000e+00	0.000000e+00	0.000000e+00	
207	4.000000e+00	0.000000e+00	0.000000e+00	0.000000e+00	
208	4.000000e+00	0.000000e+00	0.000000e+00	0.000000e+00	
209	4.000000e+00	0.000000e+00	0.000000e+00	0.000000e+00	
210	4.000000e+00	0.000000e+00	0.000000e+00	0.000000e+00	
211	4.000000e+00	0.000000e+00	0.000000e+00	0.000000e+00	
212	4.000000e+00	0.000000e+00	0.000000e+00	0.000000e+00	
213	4.000000e+00	0.000000e+00	0.000000e+00	0.000000e+00	
214	4.000000e+00	0.000000e+00	0.000000e+00	0.000000e+00	
215	4.000000e+00	0.000000e+00	0.000000e+00	0.000000e+00	
216	4.000000e+00	0.000000e+00	0.000000e+00	0.000000e+00	
217	4.000000e+00	0.000000e+00	0.000000e+00	0.000000e+00	
218	4.000000e+00	0.000000e+00	0.000000e+00	0.000000e+00	
219	4.000000e+00	0.000000e+00	0.000000e+00	0.000000e+00	
220	4.000001e+00	0.000000e+00	0.000000e+00	0.000000e+00	
221	4.000001e+00	0.000000e+00	0.000000e+00	0.000000e+00	
222	4.000002e+00	0.000000e+00	0.000000e+00	0.000000e+00	
223	4.000004e+00	0.000000e+00	0.000000e+00	0.000000e+00	
224	4.000008e+00	0.000000e+00	0.000000e+00	0.000000e+00	
225	4.000017e+00	0.000000e+00	0.000000e+00	0.000000e+00	
226	4.000034e+00	0.000000e+00	0.000000e+00	0.000000e+00	
227	4.000067e+00	0.000000e+00	0.000000e+00	0.000000e+00	
228	4.000134e+00	0.000000e+00	0.000000e+00	0.000000e+00	

Index   time            net-_u3-pad1_   net-_u3-pad2_   net-_u3-pad3_   
--------------------------------------------------------------------------------
229	4.000268e+00	0.000000e+00	0.000000e+00	0.000000e+00	
230	4.000537e+00	0.000000e+00	0.000000e+00	0.000000e+00	
231	4.001074e+00	0.000000e+00	0.000000e+00	0.000000e+00	
232	4.002147e+00	0.000000e+00	0.000000e+00	0.000000e+00	
233	4.004295e+00	0.000000e+00	0.000000e+00	0.000000e+00	
234	4.008590e+00	0.000000e+00	0.000000e+00	0.000000e+00	
235	4.017180e+00	0.000000e+00	0.000000e+00	0.000000e+00	
236	4.034360e+00	0.000000e+00	0.000000e+00	0.000000e+00	
237	4.068719e+00	0.000000e+00	0.000000e+00	0.000000e+00	
238	4.137439e+00	0.000000e+00	0.000000e+00	0.000000e+00	
239	4.237439e+00	0.000000e+00	0.000000e+00	0.000000e+00	
240	4.337439e+00	0.000000e+00	0.000000e+00	0.000000e+00	
241	4.437439e+00	0.000000e+00	0.000000e+00	0.000000e+00	
242	4.537439e+00	0.000000e+00	0.000000e+00	0.000000e+00	
243	4.637439e+00	0.000000e+00	0.000000e+00	0.000000e+00	
244	4.737439e+00	0.000000e+00	0.000000e+00	0.000000e+00	
245	4.837439e+00	0.000000e+00	0.000000e+00	0.000000e+00	
246	4.937439e+00	0.000000e+00	0.000000e+00	0.000000e+00	
247	5.000000e+00	0.000000e+00	0.000000e+00	0.000000e+00	
248	5.000000e+00	0.000000e+00	0.000000e+00	0.000000e+00	
249	5.000000e+00	0.000000e+00	0.000000e+00	0.000000e+00	
250	5.000000e+00	0.000000e+00	0.000000e+00	0.000000e+00	
251	5.000000e+00	0.000000e+00	0.000000e+00	0.000000e+00	
252	5.000000e+00	0.000000e+00	0.000000e+00	0.000000e+00	
253	5.000000e+00	0.000000e+00	0.000000e+00	0.000000e+00	
254	5.000000e+00	0.000000e+00	0.000000e+00	0.000000e+00	
255	5.000000e+00	0.000000e+00	0.000000e+00	0.000000e+00	
256	5.000000e+00	3.200107e-01	0.000000e+00	0.000000e+00	
257	5.000000e+00	9.600321e-01	0.000000e+00	0.000000e+00	
258	5.000000e+00	2.240030e+00	0.000000e+00	0.000000e+00	
259	5.000000e+00	4.800027e+00	0.000000e+00	0.000000e+00	
260	5.000000e+00	5.000000e+00	0.000000e+00	0.000000e+00	
261	5.000000e+00	5.000000e+00	0.000000e+00	0.000000e+00	
262	5.000000e+00	5.000000e+00	0.000000e+00	0.000000e+00	
263	5.000000e+00	5.000000e+00	0.000000e+00	0.000000e+00	
264	5.000000e+00	5.000000e+00	0.000000e+00	0.000000e+00	
265	5.000000e+00	5.000000e+00	0.000000e+00	0.000000e+00	
266	5.000000e+00	5.000000e+00	0.000000e+00	0.000000e+00	
267	5.000000e+00	5.000000e+00	0.000000e+00	0.000000e+00	
268	5.000000e+00	5.000000e+00	0.000000e+00	0.000000e+00	
269	5.000000e+00	5.000000e+00	0.000000e+00	0.000000e+00	
270	5.000000e+00	5.000000e+00	0.000000e+00	0.000000e+00	
271	5.000000e+00	5.000000e+00	0.000000e+00	0.000000e+00	
272	5.000001e+00	5.000000e+00	0.000000e+00	0.000000e+00	
273	5.000002e+00	5.000000e+00	0.000000e+00	0.000000e+00	
274	5.000003e+00	5.000000e+00	0.000000e+00	0.000000e+00	
275	5.000007e+00	5.000000e+00	0.000000e+00	0.000000e+00	
276	5.000013e+00	5.000000e+00	0.000000e+00	0.000000e+00	
277	5.000027e+00	5.000000e+00	0.000000e+00	0.000000e+00	
278	5.000054e+00	5.000000e+00	0.000000e+00	0.000000e+00	
279	5.000107e+00	5.000000e+00	0.000000e+00	0.000000e+00	
280	5.000215e+00	5.000000e+00	0.000000e+00	0.000000e+00	
281	5.000429e+00	5.000000e+00	0.000000e+00	0.000000e+00	
282	5.000859e+00	5.000000e+00	0.000000e+00	0.000000e+00	
283	5.001718e+00	5.000000e+00	0.000000e+00	0.000000e+00	
284	5.003436e+00	5.000000e+00	0.000000e+00	0.000000e+00	
285	5.006872e+00	5.000000e+00	0.000000e+00	0.000000e+00	
286	5.013744e+00	5.000000e+00	0.000000e+00	0.000000e+00	

Index   time            net-_u3-pad1_   net-_u3-pad2_   net-_u3-pad3_   
--------------------------------------------------------------------------------
287	5.027488e+00	5.000000e+00	0.000000e+00	0.000000e+00	
288	5.054976e+00	5.000000e+00	0.000000e+00	0.000000e+00	
289	5.109951e+00	5.000000e+00	0.000000e+00	0.000000e+00	
290	5.209951e+00	5.000000e+00	0.000000e+00	0.000000e+00	
291	5.309951e+00	5.000000e+00	0.000000e+00	0.000000e+00	
292	5.409951e+00	5.000000e+00	0.000000e+00	0.000000e+00	
293	5.509951e+00	5.000000e+00	0.000000e+00	0.000000e+00	
294	5.609951e+00	5.000000e+00	0.000000e+00	0.000000e+00	
295	5.709951e+00	5.000000e+00	0.000000e+00	0.000000e+00	
296	5.809951e+00	5.000000e+00	0.000000e+00	0.000000e+00	
297	5.909951e+00	5.000000e+00	0.000000e+00	0.000000e+00	
298	6.000000e+00	5.000000e+00	0.000000e+00	0.000000e+00	
299	6.000000e+00	5.000000e+00	0.000000e+00	5.000000e-01	
300	6.000000e+00	5.000000e+00	0.000000e+00	1.500000e+00	
301	6.000000e+00	5.000000e+00	0.000000e+00	3.500000e+00	
302	6.000000e+00	5.000000e+00	0.000000e+00	5.000000e+00	
303	6.000000e+00	4.600009e+00	0.000000e+00	5.000000e+00	
304	6.000000e+00	3.800027e+00	0.000000e+00	5.000000e+00	
305	6.000000e+00	2.200018e+00	0.000000e+00	5.000000e+00	
306	6.000000e+00	0.000000e+00	0.000000e+00	5.000000e+00	
307	6.000000e+00	0.000000e+00	0.000000e+00	5.000000e+00	
308	6.000000e+00	0.000000e+00	0.000000e+00	5.000000e+00	
309	6.000000e+00	0.000000e+00	0.000000e+00	5.000000e+00	
310	6.000000e+00	0.000000e+00	0.000000e+00	5.000000e+00	
311	6.000000e+00	0.000000e+00	0.000000e+00	5.000000e+00	
312	6.000000e+00	0.000000e+00	0.000000e+00	5.000000e+00	
313	6.000000e+00	0.000000e+00	0.000000e+00	5.000000e+00	
314	6.000000e+00	0.000000e+00	0.000000e+00	5.000000e+00	
315	6.000000e+00	0.000000e+00	0.000000e+00	5.000000e+00	
316	6.000000e+00	0.000000e+00	0.000000e+00	5.000000e+00	
317	6.000000e+00	0.000000e+00	0.000000e+00	5.000000e+00	
318	6.000000e+00	0.000000e+00	0.000000e+00	5.000000e+00	
319	6.000000e+00	0.000000e+00	0.000000e+00	5.000000e+00	
320	6.000000e+00	0.000000e+00	0.000000e+00	5.000000e+00	
321	6.000000e+00	0.000000e+00	0.000000e+00	5.000000e+00	
322	6.000000e+00	0.000000e+00	0.000000e+00	5.000000e+00	
323	6.000001e+00	0.000000e+00	0.000000e+00	5.000000e+00	
324	6.000002e+00	0.000000e+00	0.000000e+00	5.000000e+00	
325	6.000003e+00	0.000000e+00	0.000000e+00	5.000000e+00	
326	6.000007e+00	0.000000e+00	0.000000e+00	5.000000e+00	
327	6.000013e+00	0.000000e+00	0.000000e+00	5.000000e+00	
328	6.000027e+00	0.000000e+00	0.000000e+00	5.000000e+00	
329	6.000054e+00	0.000000e+00	0.000000e+00	5.000000e+00	
330	6.000107e+00	0.000000e+00	0.000000e+00	5.000000e+00	
331	6.000215e+00	0.000000e+00	0.000000e+00	5.000000e+00	
