                    * /home/fossee/esim-workspace/rl/rl.cir
                    Transient Analysis  Fri Aug 20 16:31:54  2021
--------------------------------------------------------------------------------
Index   time            in              out             
--------------------------------------------------------------------------------
0	0.000000e+00	0.000000e+00	0.000000e+00	
1	5.000000e-06	5.000000e-02	4.997501e-02	
2	5.420140e-06	5.420140e-02	5.417414e-02	
3	6.260420e-06	6.260420e-02	6.257203e-02	
4	7.940980e-06	7.940980e-02	7.936570e-02	
5	1.130210e-05	1.130210e-01	1.129446e-01	
6	1.802434e-05	1.802434e-01	1.800685e-01	
7	3.146882e-05	3.146882e-01	3.141811e-01	
8	5.835778e-05	5.835778e-01	5.818660e-01	
9	1.121357e-04	1.121357e+00	1.115082e+00	
10	2.196915e-04	2.196915e+00	2.172958e+00	
11	4.348032e-04	4.348032e+00	4.254939e+00	
12	5.000000e-04	5.000000e+00	4.877138e+00	
13	5.430223e-04	5.000000e+00	4.856245e+00	
14	6.290670e-04	5.000000e+00	4.814639e+00	
15	8.011564e-04	5.000000e+00	4.732491e+00	
16	1.145335e-03	5.000000e+00	4.572364e+00	
17	1.833692e-03	5.000000e+00	4.268094e+00	
18	3.210407e-03	5.000000e+00	3.718342e+00	
19	5.963837e-03	5.000000e+00	2.818417e+00	
20	1.147070e-02	5.000000e+00	1.601440e+00	
21	2.147070e-02	5.000000e+00	5.338135e-01	
22	3.147070e-02	5.000000e+00	1.779378e-01	
23	4.147070e-02	5.000000e+00	5.931261e-02	
24	5.000000e-02	5.000000e+00	2.384765e-02	
25	5.005000e-02	4.500000e+00	-4.73783e-01	
26	5.015000e-02	3.500000e+00	-1.46409e+00	
27	5.035000e-02	1.500000e+00	-3.41530e+00	
28	5.050000e-02	0.000000e+00	-4.85329e+00	
29	5.054000e-02	0.000000e+00	-4.83395e+00	
30	5.062000e-02	0.000000e+00	-4.79543e+00	
31	5.078000e-02	0.000000e+00	-4.71931e+00	
32	5.110000e-02	0.000000e+00	-4.57067e+00	
33	5.174000e-02	0.000000e+00	-4.28722e+00	
34	5.302000e-02	0.000000e+00	-3.77147e+00	
35	5.558000e-02	0.000000e+00	-2.91553e+00	
36	6.070000e-02	0.000000e+00	-1.72703e+00	
37	6.757658e-02	0.000000e+00	-8.43284e-01	
38	7.415089e-02	0.000000e+00	-4.26038e-01	
39	8.053281e-02	0.000000e+00	-2.19917e-01	
40	8.729736e-02	0.000000e+00	-1.08752e-01	
41	9.399951e-02	0.000000e+00	-5.41592e-02	
42	1.000000e-01	0.000000e+00	-2.91611e-02	
43	1.006764e-01	0.000000e+00	-2.73135e-02	
44	1.020292e-01	0.000000e+00	-2.38526e-02	
45	1.047349e-01	0.000000e+00	-1.81679e-02	
46	1.101462e-01	0.000000e+00	-1.04303e-02	
47	1.170590e-01	0.000000e+00	-5.07202e-03	
48	1.235699e-01	0.000000e+00	-2.58071e-03	
49	1.299749e-01	0.000000e+00	-1.32872e-03	
50	1.367210e-01	0.000000e+00	-6.58441e-04	
51	1.434508e-01	0.000000e+00	-3.26888e-04	
52	1.501959e-01	0.000000e+00	-1.62006e-04	
53	1.568217e-01	0.000000e+00	-8.13759e-05	
54	1.635061e-01	0.000000e+00	-4.06071e-05	

Index   time            in              out             
--------------------------------------------------------------------------------
55	1.701685e-01	0.000000e+00	-2.03133e-05	
56	1.768759e-01	0.000000e+00	-1.01101e-05	
57	1.835450e-01	0.000000e+00	-5.05369e-06	
58	1.902352e-01	0.000000e+00	-2.52017e-06	
59	1.969038e-01	0.000000e+00	-1.25980e-06	
60	2.035934e-01	0.000000e+00	-6.28278e-07	
61	2.102682e-01	0.000000e+00	-3.13853e-07	
62	2.169551e-01	0.000000e+00	-1.56569e-07	
63	2.236308e-01	0.000000e+00	-7.82053e-08	
64	2.303155e-01	0.000000e+00	-3.90232e-08	
65	2.369930e-01	0.000000e+00	-1.94879e-08	
66	2.436768e-01	0.000000e+00	-9.72519e-09	
67	2.503552e-01	0.000000e+00	-4.85614e-09	
68	2.570380e-01	0.000000e+00	-2.42366e-09	
69	2.637172e-01	0.000000e+00	-1.21013e-09	
70	2.703994e-01	0.000000e+00	-6.04005e-10	
71	2.777787e-01	0.000000e+00	-2.78424e-10	
72	2.867188e-01	0.000000e+00	-1.06404e-10	
73	2.967188e-01	0.000000e+00	-3.54680e-11	
74	3.067188e-01	0.000000e+00	-1.18227e-11	
75	3.167188e-01	0.000000e+00	-3.94088e-12	
76	3.267188e-01	0.000000e+00	-1.31363e-12	
77	3.367188e-01	0.000000e+00	-4.37876e-13	
78	3.467188e-01	0.000000e+00	-1.45959e-13	
79	3.567188e-01	0.000000e+00	-4.86529e-14	
80	3.667188e-01	0.000000e+00	-1.62176e-14	
81	3.767188e-01	0.000000e+00	-5.40588e-15	
82	3.867188e-01	0.000000e+00	-1.80196e-15	
83	3.967188e-01	0.000000e+00	-6.00653e-16	
84	4.067188e-01	0.000000e+00	-2.00218e-16	
85	4.167188e-01	0.000000e+00	-6.67392e-17	
86	4.267188e-01	0.000000e+00	-2.22464e-17	
87	4.367188e-01	0.000000e+00	-7.41547e-18	
88	4.467188e-01	0.000000e+00	-2.47182e-18	
89	4.567188e-01	0.000000e+00	-8.23941e-19	
90	4.667188e-01	0.000000e+00	-2.74647e-19	
91	4.767188e-01	0.000000e+00	-9.15490e-20	
92	4.867188e-01	0.000000e+00	-3.05163e-20	
93	4.967188e-01	0.000000e+00	-1.01721e-20	
94	5.067188e-01	0.000000e+00	-3.39070e-21	
95	5.167188e-01	0.000000e+00	-1.13023e-21	
96	5.267188e-01	0.000000e+00	-3.76745e-22	
97	5.367188e-01	0.000000e+00	-1.25582e-22	
98	5.467188e-01	0.000000e+00	-4.18605e-23	
99	5.567188e-01	0.000000e+00	-1.39535e-23	
100	5.667188e-01	0.000000e+00	-4.65117e-24	
101	5.767188e-01	0.000000e+00	-1.55039e-24	
102	5.867188e-01	0.000000e+00	-5.16797e-25	
103	5.967188e-01	0.000000e+00	-1.72266e-25	
104	6.067188e-01	0.000000e+00	-5.74219e-26	
105	6.167188e-01	0.000000e+00	-1.91406e-26	
106	6.267188e-01	0.000000e+00	-6.38021e-27	
107	6.367188e-01	0.000000e+00	-2.12674e-27	
108	6.467188e-01	0.000000e+00	-7.08912e-28	
109	6.567188e-01	0.000000e+00	-2.36304e-28	
110	6.667188e-01	0.000000e+00	-7.87680e-29	
111	6.767188e-01	0.000000e+00	-2.62560e-29	
112	6.867188e-01	0.000000e+00	-8.75200e-30	

Index   time            in              out             
--------------------------------------------------------------------------------
113	6.967188e-01	0.000000e+00	-2.91733e-30	
114	7.067188e-01	0.000000e+00	-9.72444e-31	
115	7.167188e-01	0.000000e+00	-3.24148e-31	
116	7.267188e-01	0.000000e+00	-1.08049e-31	
117	7.367188e-01	0.000000e+00	-3.60164e-32	
118	7.467188e-01	0.000000e+00	-1.20055e-32	
119	7.567188e-01	0.000000e+00	-4.00183e-33	
120	7.667188e-01	0.000000e+00	-1.33394e-33	
121	7.767188e-01	0.000000e+00	-4.44648e-34	
122	7.867188e-01	0.000000e+00	-1.48216e-34	
123	7.967188e-01	0.000000e+00	-4.94053e-35	
124	8.067188e-01	0.000000e+00	-1.64684e-35	
125	8.167188e-01	0.000000e+00	-5.48948e-36	
126	8.267188e-01	0.000000e+00	-1.82983e-36	
127	8.367188e-01	0.000000e+00	-6.09942e-37	
128	8.467188e-01	0.000000e+00	-2.03314e-37	
129	8.567188e-01	0.000000e+00	-6.77713e-38	
130	8.667188e-01	0.000000e+00	-2.25904e-38	
131	8.767188e-01	0.000000e+00	-7.53014e-39	
132	8.867188e-01	0.000000e+00	-2.51005e-39	
133	8.967188e-01	0.000000e+00	-8.36683e-40	
134	9.067188e-01	0.000000e+00	-2.78894e-40	
135	9.167188e-01	0.000000e+00	-9.29648e-41	
136	9.267188e-01	0.000000e+00	-3.09883e-41	
137	9.367188e-01	0.000000e+00	-1.03294e-41	
138	9.467188e-01	0.000000e+00	-3.44314e-42	
139	9.567188e-01	0.000000e+00	-1.14771e-42	
140	9.667188e-01	0.000000e+00	-3.82571e-43	
141	9.767188e-01	0.000000e+00	-1.27524e-43	
142	9.867188e-01	0.000000e+00	-4.25079e-44	
143	9.967188e-01	0.000000e+00	-1.41693e-44	
144	1.006719e+00	0.000000e+00	-4.72310e-45	
145	1.016719e+00	0.000000e+00	-1.57437e-45	
146	1.026719e+00	0.000000e+00	-5.24789e-46	
147	1.036719e+00	0.000000e+00	-1.74930e-46	
148	1.046719e+00	0.000000e+00	-5.83099e-47	
149	1.056719e+00	0.000000e+00	-1.94366e-47	
150	1.066719e+00	0.000000e+00	-6.47887e-48	
151	1.076719e+00	0.000000e+00	-2.15962e-48	
152	1.086719e+00	0.000000e+00	-7.19875e-49	
153	1.096719e+00	0.000000e+00	-2.39958e-49	
154	1.106719e+00	0.000000e+00	-7.99861e-50	
155	1.116719e+00	0.000000e+00	-2.66620e-50	
156	1.126719e+00	0.000000e+00	-8.88734e-51	
157	1.136719e+00	0.000000e+00	-2.96245e-51	
158	1.146719e+00	0.000000e+00	-9.87483e-52	
159	1.156719e+00	0.000000e+00	-3.29161e-52	
160	1.166719e+00	0.000000e+00	-1.09720e-52	
161	1.176719e+00	0.000000e+00	-3.65734e-53	
162	1.186719e+00	0.000000e+00	-1.21911e-53	
163	1.196719e+00	0.000000e+00	-4.06371e-54	
164	1.206719e+00	0.000000e+00	-1.35457e-54	
165	1.216719e+00	0.000000e+00	-4.51524e-55	
166	1.226719e+00	0.000000e+00	-1.50508e-55	
167	1.236719e+00	0.000000e+00	-5.01693e-56	
168	1.246719e+00	0.000000e+00	-1.67231e-56	
169	1.256719e+00	0.000000e+00	-5.57437e-57	
170	1.266719e+00	0.000000e+00	-1.85812e-57	

Index   time            in              out             
--------------------------------------------------------------------------------
171	1.276719e+00	0.000000e+00	-6.19374e-58	
172	1.286719e+00	0.000000e+00	-2.06458e-58	
173	1.296719e+00	0.000000e+00	-6.88194e-59	
174	1.306719e+00	0.000000e+00	-2.29398e-59	
175	1.316719e+00	0.000000e+00	-7.64660e-60	
176	1.326719e+00	0.000000e+00	-2.54887e-60	
177	1.336719e+00	0.000000e+00	-8.49622e-61	
178	1.346719e+00	0.000000e+00	-2.83207e-61	
179	1.356719e+00	0.000000e+00	-9.44024e-62	
180	1.366719e+00	0.000000e+00	-3.14675e-62	
181	1.376719e+00	0.000000e+00	-1.04892e-62	
182	1.386719e+00	0.000000e+00	-3.49639e-63	
183	1.396719e+00	0.000000e+00	-1.16546e-63	
184	1.406719e+00	0.000000e+00	-3.88487e-64	
185	1.416719e+00	0.000000e+00	-1.29496e-64	
186	1.426719e+00	0.000000e+00	-4.31653e-65	
187	1.436719e+00	0.000000e+00	-1.43884e-65	
188	1.446719e+00	0.000000e+00	-4.79614e-66	
189	1.456719e+00	0.000000e+00	-1.59871e-66	
190	1.466719e+00	0.000000e+00	-5.32904e-67	
191	1.476719e+00	0.000000e+00	-1.77635e-67	
192	1.486719e+00	0.000000e+00	-5.92116e-68	
193	1.496719e+00	0.000000e+00	-1.97372e-68	
194	1.506719e+00	0.000000e+00	-6.57907e-69	
195	1.516719e+00	0.000000e+00	-2.19302e-69	
196	1.526719e+00	0.000000e+00	-7.31007e-70	
197	1.536719e+00	0.000000e+00	-2.43669e-70	
198	1.546719e+00	0.000000e+00	-8.12230e-71	
199	1.556719e+00	0.000000e+00	-2.70743e-71	
200	1.566719e+00	0.000000e+00	-9.02478e-72	
201	1.576719e+00	0.000000e+00	-3.00826e-72	
202	1.586719e+00	0.000000e+00	-1.00275e-72	
203	1.596719e+00	0.000000e+00	-3.34251e-73	
204	1.606719e+00	0.000000e+00	-1.11417e-73	
205	1.616719e+00	0.000000e+00	-3.71390e-74	
206	1.626719e+00	0.000000e+00	-1.23797e-74	
207	1.636719e+00	0.000000e+00	-4.12656e-75	
208	1.646719e+00	0.000000e+00	-1.37552e-75	
209	1.656719e+00	0.000000e+00	-4.58506e-76	
210	1.666719e+00	0.000000e+00	-1.52835e-76	
211	1.676719e+00	0.000000e+00	-5.09452e-77	
212	1.686719e+00	0.000000e+00	-1.69817e-77	
213	1.696719e+00	0.000000e+00	-5.66057e-78	
214	1.706719e+00	0.000000e+00	-1.88686e-78	
215	1.716719e+00	0.000000e+00	-6.28953e-79	
216	1.726719e+00	0.000000e+00	-2.09651e-79	
217	1.736719e+00	0.000000e+00	-6.98836e-80	
218	1.746719e+00	0.000000e+00	-2.32945e-80	
219	1.756719e+00	0.000000e+00	-7.76485e-81	
220	1.766719e+00	0.000000e+00	-2.58828e-81	
221	1.776719e+00	0.000000e+00	-8.62761e-82	
222	1.786719e+00	0.000000e+00	-2.87587e-82	
223	1.796719e+00	0.000000e+00	-9.58623e-83	
224	1.806719e+00	0.000000e+00	-3.19541e-83	
225	1.816719e+00	0.000000e+00	-1.06514e-83	
226	1.826719e+00	0.000000e+00	-3.55046e-84	
227	1.836719e+00	0.000000e+00	-1.18349e-84	
228	1.846719e+00	0.000000e+00	-3.94495e-85	

Index   time            in              out             
--------------------------------------------------------------------------------
229	1.856719e+00	0.000000e+00	-1.31498e-85	
230	1.866719e+00	0.000000e+00	-4.38328e-86	
231	1.876719e+00	0.000000e+00	-1.46109e-86	
232	1.886719e+00	0.000000e+00	-4.87031e-87	
233	1.896719e+00	0.000000e+00	-1.62344e-87	
234	1.906719e+00	0.000000e+00	-5.41146e-88	
235	1.916719e+00	0.000000e+00	-1.80382e-88	
236	1.926719e+00	0.000000e+00	-6.01273e-89	
237	1.936719e+00	0.000000e+00	-2.00424e-89	
238	1.946719e+00	0.000000e+00	-6.68081e-90	
239	1.956719e+00	0.000000e+00	-2.22694e-90	
240	1.966719e+00	0.000000e+00	-7.42312e-91	
241	1.976719e+00	0.000000e+00	-2.47437e-91	
242	1.986719e+00	0.000000e+00	-8.24791e-92	
243	1.996719e+00	0.000000e+00	-2.74930e-92	
244	2.006719e+00	0.000000e+00	-9.16435e-93	
245	2.016719e+00	0.000000e+00	-3.05478e-93	
246	2.026719e+00	0.000000e+00	-1.01826e-93	
247	2.036719e+00	0.000000e+00	-3.39420e-94	
248	2.046719e+00	0.000000e+00	-1.13140e-94	
249	2.056719e+00	0.000000e+00	-3.77134e-95	
250	2.066719e+00	0.000000e+00	-1.25711e-95	
251	2.076719e+00	0.000000e+00	-4.19037e-96	
252	2.086719e+00	0.000000e+00	-1.39679e-96	
253	2.096719e+00	0.000000e+00	-4.65597e-97	
254	2.106719e+00	0.000000e+00	-1.55199e-97	
255	2.116719e+00	0.000000e+00	-5.17330e-98	
256	2.126719e+00	0.000000e+00	-1.72443e-98	
257	2.136719e+00	0.000000e+00	-5.74811e-99	
258	2.146719e+00	0.000000e+00	-1.91604e-99	
259	2.156719e+00	0.000000e+00	-6.38679e-100	
260	2.166719e+00	0.000000e+00	-2.12893e-100	
261	2.176719e+00	0.000000e+00	-7.09643e-101	
262	2.186719e+00	0.000000e+00	-2.36548e-101	
263	2.196719e+00	0.000000e+00	-7.88493e-102	
264	2.206719e+00	0.000000e+00	-2.62831e-102	
265	2.216719e+00	0.000000e+00	-8.76103e-103	
266	2.226719e+00	0.000000e+00	-2.92034e-103	
267	2.236719e+00	0.000000e+00	-9.73448e-104	
268	2.246719e+00	0.000000e+00	-3.24483e-104	
269	2.256719e+00	0.000000e+00	-1.08161e-104	
270	2.266719e+00	0.000000e+00	-3.60536e-105	
271	2.276719e+00	0.000000e+00	-1.20179e-105	
272	2.286719e+00	0.000000e+00	-4.00596e-106	
273	2.296719e+00	0.000000e+00	-1.33532e-106	
274	2.306719e+00	0.000000e+00	-4.45106e-107	
275	2.316719e+00	0.000000e+00	-1.48369e-107	
276	2.326719e+00	0.000000e+00	-4.94563e-108	
277	2.336719e+00	0.000000e+00	-1.64854e-108	
278	2.346719e+00	0.000000e+00	-5.49514e-109	
279	2.356719e+00	0.000000e+00	-1.83171e-109	
280	2.366719e+00	0.000000e+00	-6.10571e-110	
281	2.376719e+00	0.000000e+00	-2.03524e-110	
282	2.386719e+00	0.000000e+00	-6.78413e-111	
283	2.396719e+00	0.000000e+00	-2.26138e-111	
284	2.406719e+00	0.000000e+00	-7.53792e-112	
285	2.416719e+00	0.000000e+00	-2.51264e-112	
286	2.426719e+00	0.000000e+00	-8.37546e-113	

Index   time            in              out             
--------------------------------------------------------------------------------
287	2.436719e+00	0.000000e+00	-2.79182e-113	
288	2.446719e+00	0.000000e+00	-9.30607e-114	
289	2.456719e+00	0.000000e+00	-3.10202e-114	
290	2.466719e+00	0.000000e+00	-1.03401e-114	
291	2.476719e+00	0.000000e+00	-3.44669e-115	
292	2.486719e+00	0.000000e+00	-1.14890e-115	
293	2.496719e+00	0.000000e+00	-3.82966e-116	
294	2.506719e+00	0.000000e+00	-1.27655e-116	
295	2.516719e+00	0.000000e+00	-4.25518e-117	
296	2.526719e+00	0.000000e+00	-1.41839e-117	
297	2.536719e+00	0.000000e+00	-4.72797e-118	
298	2.546719e+00	0.000000e+00	-1.57599e-118	
299	2.556719e+00	0.000000e+00	-5.25330e-119	
300	2.566719e+00	0.000000e+00	-1.75110e-119	
301	2.576719e+00	0.000000e+00	-5.83700e-120	
302	2.586719e+00	0.000000e+00	-1.94567e-120	
303	2.596719e+00	0.000000e+00	-6.48556e-121	
304	2.606719e+00	0.000000e+00	-2.16185e-121	
305	2.616719e+00	0.000000e+00	-7.20618e-122	
306	2.626719e+00	0.000000e+00	-2.40206e-122	
307	2.636719e+00	0.000000e+00	-8.00687e-123	
308	2.646719e+00	0.000000e+00	-2.66896e-123	
309	2.656719e+00	0.000000e+00	-8.89652e-124	
310	2.666719e+00	0.000000e+00	-2.96551e-124	
311	2.676719e+00	0.000000e+00	-9.88502e-125	
312	2.686719e+00	0.000000e+00	-3.29501e-125	
313	2.696719e+00	0.000000e+00	-1.09834e-125	
314	2.706719e+00	0.000000e+00	-3.66112e-126	
315	2.716719e+00	0.000000e+00	-1.22037e-126	
316	2.726719e+00	0.000000e+00	-4.06791e-127	
317	2.736719e+00	0.000000e+00	-1.35597e-127	
318	2.746719e+00	0.000000e+00	-4.51990e-128	
319	2.756719e+00	0.000000e+00	-1.50663e-128	
320	2.766719e+00	0.000000e+00	-5.02211e-129	
321	2.776719e+00	0.000000e+00	-1.67404e-129	
322	2.786719e+00	0.000000e+00	-5.58012e-130	
323	2.796719e+00	0.000000e+00	-1.86004e-130	
324	2.806719e+00	0.000000e+00	-6.20014e-131	
325	2.816719e+00	0.000000e+00	-2.06671e-131	
326	2.826719e+00	0.000000e+00	-6.88904e-132	
327	2.836719e+00	0.000000e+00	-2.29635e-132	
328	2.846719e+00	0.000000e+00	-7.65449e-133	
329	2.856719e+00	0.000000e+00	-2.55150e-133	
330	2.866719e+00	0.000000e+00	-8.50499e-134	
331	2.876719e+00	0.000000e+00	-2.83500e-134	
332	2.886719e+00	0.000000e+00	-9.44999e-135	
333	2.896719e+00	0.000000e+00	-3.15000e-135	
334	2.906719e+00	0.000000e+00	-1.05000e-135	
335	2.916719e+00	0.000000e+00	-3.49999e-136	
336	2.926719e+00	0.000000e+00	-1.16666e-136	
337	2.936719e+00	0.000000e+00	-3.88888e-137	
338	2.946719e+00	0.000000e+00	-1.29629e-137	
339	2.956719e+00	0.000000e+00	-4.32098e-138	
340	2.966719e+00	0.000000e+00	-1.44033e-138	
341	2.976719e+00	0.000000e+00	-4.80109e-139	
342	2.986719e+00	0.000000e+00	-1.60036e-139	
343	2.996719e+00	0.000000e+00	-5.33454e-140	
344	3.006719e+00	0.000000e+00	-1.77818e-140	

Index   time            in              out             
--------------------------------------------------------------------------------
345	3.016719e+00	0.000000e+00	-5.92727e-141	
346	3.026719e+00	0.000000e+00	-1.97576e-141	
347	3.036719e+00	0.000000e+00	-6.58586e-142	
348	3.046719e+00	0.000000e+00	-2.19529e-142	
349	3.056719e+00	0.000000e+00	-7.31762e-143	
350	3.066719e+00	0.000000e+00	-2.43921e-143	
351	3.076719e+00	0.000000e+00	-8.13069e-144	
352	3.086719e+00	0.000000e+00	-2.71023e-144	
353	3.096719e+00	0.000000e+00	-9.03410e-145	
354	3.106719e+00	0.000000e+00	-3.01137e-145	
355	3.116719e+00	0.000000e+00	-1.00379e-145	
356	3.126719e+00	0.000000e+00	-3.34596e-146	
357	3.136719e+00	0.000000e+00	-1.11532e-146	
358	3.146719e+00	0.000000e+00	-3.71774e-147	
359	3.156719e+00	0.000000e+00	-1.23925e-147	
360	3.166719e+00	0.000000e+00	-4.13082e-148	
361	3.176719e+00	0.000000e+00	-1.37694e-148	
362	3.186719e+00	0.000000e+00	-4.58980e-149	
363	3.196719e+00	0.000000e+00	-1.52993e-149	
364	3.206719e+00	0.000000e+00	-5.09977e-150	
365	3.216719e+00	0.000000e+00	-1.69992e-150	
366	3.226719e+00	0.000000e+00	-5.66642e-151	
367	3.236719e+00	0.000000e+00	-1.88881e-151	
368	3.246719e+00	0.000000e+00	-6.29602e-152	
369	3.256719e+00	0.000000e+00	-2.09867e-152	
370	3.266719e+00	0.000000e+00	-6.99558e-153	
371	3.276719e+00	0.000000e+00	-2.33186e-153	
372	3.286719e+00	0.000000e+00	-7.77286e-154	
373	3.296719e+00	0.000000e+00	-2.59095e-154	
374	3.306719e+00	0.000000e+00	-8.63651e-155	
375	3.316719e+00	0.000000e+00	-2.87884e-155	
376	3.326719e+00	0.000000e+00	-9.59613e-156	
377	3.336719e+00	0.000000e+00	-3.19871e-156	
378	3.346719e+00	0.000000e+00	-1.06624e-156	
379	3.356719e+00	0.000000e+00	-3.55412e-157	
380	3.366719e+00	0.000000e+00	-1.18471e-157	
381	3.376719e+00	0.000000e+00	-3.94902e-158	
382	3.386719e+00	0.000000e+00	-1.31634e-158	
383	3.396719e+00	0.000000e+00	-4.38780e-159	
384	3.406719e+00	0.000000e+00	-1.46260e-159	
385	3.416719e+00	0.000000e+00	-4.87534e-160	
386	3.426719e+00	0.000000e+00	-1.62511e-160	
387	3.436719e+00	0.000000e+00	-5.41704e-161	
388	3.446719e+00	0.000000e+00	-1.80568e-161	
389	3.456719e+00	0.000000e+00	-6.01893e-162	
390	3.466719e+00	0.000000e+00	-2.00631e-162	
391	3.476719e+00	0.000000e+00	-6.68771e-163	
392	3.486719e+00	0.000000e+00	-2.22924e-163	
393	3.496719e+00	0.000000e+00	-7.43078e-164	
394	3.506719e+00	0.000000e+00	-2.47693e-164	
395	3.516719e+00	0.000000e+00	-8.25643e-165	
396	3.526719e+00	0.000000e+00	-2.75214e-165	
397	3.536719e+00	0.000000e+00	-9.17381e-166	
398	3.546719e+00	0.000000e+00	-3.05794e-166	
399	3.556719e+00	0.000000e+00	-1.01931e-166	
400	3.566719e+00	0.000000e+00	-3.39771e-167	
401	3.576719e+00	0.000000e+00	-1.13257e-167	
402	3.586719e+00	0.000000e+00	-3.77523e-168	

Index   time            in              out             
--------------------------------------------------------------------------------
403	3.596719e+00	0.000000e+00	-1.25841e-168	
404	3.606719e+00	0.000000e+00	-4.19470e-169	
405	3.616719e+00	0.000000e+00	-1.39823e-169	
406	3.626719e+00	0.000000e+00	-4.66078e-170	
407	3.636719e+00	0.000000e+00	-1.55359e-170	
408	3.646719e+00	0.000000e+00	-5.17864e-171	
409	3.656719e+00	0.000000e+00	-1.72621e-171	
410	3.666719e+00	0.000000e+00	-5.75405e-172	
411	3.676719e+00	0.000000e+00	-1.91802e-172	
412	3.686719e+00	0.000000e+00	-6.39338e-173	
413	3.696719e+00	0.000000e+00	-2.13113e-173	
414	3.706719e+00	0.000000e+00	-7.10376e-174	
415	3.716719e+00	0.000000e+00	-2.36792e-174	
416	3.726719e+00	0.000000e+00	-7.89307e-175	
417	3.736719e+00	0.000000e+00	-2.63102e-175	
418	3.746719e+00	0.000000e+00	-8.77007e-176	
419	3.756719e+00	0.000000e+00	-2.92336e-176	
420	3.766719e+00	0.000000e+00	-9.74453e-177	
421	3.776719e+00	0.000000e+00	-3.24818e-177	
422	3.786719e+00	0.000000e+00	-1.08273e-177	
