                 * /home/sumanto/desktop/hackathon/dac/dac.cir
                 Transient Analysis  Mon Feb  7 03:26:29  2022
--------------------------------------------------------------------------------
Index   time            a.x1.a1#branch_ a.x1.a2#branch_ a.x1.a3#branch_ 
--------------------------------------------------------------------------------
0	0.000000e+00	0.000000e+00	1.546463e-06	3.092925e-06	
1	1.000000e-06	0.000000e+00	1.546463e-06	3.092925e-06	
2	2.000000e-06	0.000000e+00	1.546463e-06	3.092925e-06	
3	4.000000e-06	0.000000e+00	1.546463e-06	3.092925e-06	
4	8.000000e-06	0.000000e+00	1.546463e-06	3.092925e-06	
5	1.600000e-05	0.000000e+00	1.546463e-06	3.092925e-06	
6	3.200000e-05	0.000000e+00	1.546463e-06	3.092925e-06	
7	6.400000e-05	0.000000e+00	1.546463e-06	3.092925e-06	
8	1.280000e-04	0.000000e+00	1.546463e-06	3.092925e-06	
9	2.560000e-04	0.000000e+00	1.546463e-06	3.092925e-06	
10	4.560000e-04	0.000000e+00	1.546463e-06	3.092925e-06	
11	6.560000e-04	0.000000e+00	1.546463e-06	3.092925e-06	
12	8.560000e-04	0.000000e+00	1.546463e-06	3.092925e-06	
13	1.056000e-03	0.000000e+00	1.546463e-06	3.092925e-06	
14	1.256000e-03	0.000000e+00	1.546463e-06	3.092925e-06	
15	1.456000e-03	0.000000e+00	1.546463e-06	3.092925e-06	
16	1.656000e-03	0.000000e+00	1.546463e-06	3.092925e-06	
17	1.856000e-03	0.000000e+00	1.546463e-06	3.092925e-06	
18	2.056000e-03	0.000000e+00	1.546463e-06	3.092925e-06	
19	2.256000e-03	0.000000e+00	1.546463e-06	3.092925e-06	
20	2.456000e-03	0.000000e+00	1.546463e-06	3.092925e-06	
21	2.656000e-03	0.000000e+00	1.546463e-06	3.092925e-06	
22	2.856000e-03	0.000000e+00	1.546463e-06	3.092925e-06	
23	3.056000e-03	0.000000e+00	1.546463e-06	3.092925e-06	
24	3.256000e-03	0.000000e+00	1.546463e-06	3.092925e-06	
25	3.456000e-03	0.000000e+00	1.546463e-06	3.092925e-06	
26	3.656000e-03	0.000000e+00	1.546463e-06	3.092925e-06	
27	3.856000e-03	0.000000e+00	1.546463e-06	3.092925e-06	
28	4.056000e-03	0.000000e+00	1.546463e-06	3.092925e-06	
29	4.256000e-03	0.000000e+00	1.546463e-06	3.092925e-06	
30	4.456000e-03	0.000000e+00	1.546463e-06	3.092925e-06	
31	4.656000e-03	0.000000e+00	1.546463e-06	3.092925e-06	
32	4.856000e-03	0.000000e+00	1.546463e-06	3.092925e-06	
33	5.056000e-03	0.000000e+00	1.546463e-06	3.092925e-06	
34	5.256000e-03	0.000000e+00	1.546463e-06	3.092925e-06	
35	5.456000e-03	0.000000e+00	1.546463e-06	3.092925e-06	
36	5.656000e-03	0.000000e+00	1.546463e-06	3.092925e-06	
37	5.856000e-03	0.000000e+00	1.546463e-06	3.092925e-06	
38	6.056000e-03	0.000000e+00	1.546463e-06	3.092925e-06	
39	6.256000e-03	0.000000e+00	1.546463e-06	3.092925e-06	
40	6.456000e-03	0.000000e+00	1.546463e-06	3.092925e-06	
41	6.656000e-03	0.000000e+00	1.546463e-06	3.092925e-06	
42	6.856000e-03	0.000000e+00	1.546463e-06	3.092925e-06	
43	7.056000e-03	0.000000e+00	1.546463e-06	3.092925e-06	
44	7.256000e-03	0.000000e+00	1.546463e-06	3.092925e-06	
45	7.456000e-03	0.000000e+00	1.546463e-06	3.092925e-06	
46	7.656000e-03	0.000000e+00	1.546463e-06	3.092925e-06	
47	7.856000e-03	0.000000e+00	1.546463e-06	3.092925e-06	
48	8.056000e-03	0.000000e+00	1.546463e-06	3.092925e-06	
49	8.256000e-03	0.000000e+00	1.546463e-06	3.092925e-06	
50	8.456000e-03	0.000000e+00	1.546463e-06	3.092925e-06	
51	8.656000e-03	0.000000e+00	1.546463e-06	3.092925e-06	
52	8.856000e-03	0.000000e+00	1.546463e-06	3.092925e-06	
53	9.056000e-03	0.000000e+00	1.546463e-06	3.092925e-06	
54	9.256000e-03	0.000000e+00	1.546463e-06	3.092925e-06	

Index   time            a.x1.a1#branch_ a.x1.a2#branch_ a.x1.a3#branch_ 
--------------------------------------------------------------------------------
55	9.456000e-03	0.000000e+00	1.546463e-06	3.092925e-06	
56	9.656000e-03	0.000000e+00	1.546463e-06	3.092925e-06	
57	9.856000e-03	0.000000e+00	1.546463e-06	3.092925e-06	
58	1.000000e-02	0.000000e+00	1.546463e-06	3.092925e-06	

                 * /home/sumanto/desktop/hackathon/dac/dac.cir
                 Transient Analysis  Mon Feb  7 03:26:29  2022
--------------------------------------------------------------------------------
Index   time            a.x1.a4#branch_ a.x1.a5#branch_ a.x1.a6#branch_ 
--------------------------------------------------------------------------------
0	0.000000e+00	-1.33454e-05	1.237170e-05	2.474340e-05	
1	1.000000e-06	-1.33454e-05	1.237170e-05	2.474340e-05	
2	2.000000e-06	-1.33454e-05	1.237170e-05	2.474340e-05	
3	4.000000e-06	-1.33454e-05	1.237170e-05	2.474340e-05	
4	8.000000e-06	-1.33454e-05	1.237170e-05	2.474340e-05	
5	1.600000e-05	-1.33454e-05	1.237170e-05	2.474340e-05	
6	3.200000e-05	-1.33454e-05	1.237170e-05	2.474340e-05	
7	6.400000e-05	-1.33454e-05	1.237170e-05	2.474340e-05	
8	1.280000e-04	-1.33454e-05	1.237170e-05	2.474340e-05	
9	2.560000e-04	-1.33454e-05	1.237170e-05	2.474340e-05	
10	4.560000e-04	-1.33454e-05	1.237170e-05	2.474340e-05	
11	6.560000e-04	-1.33454e-05	1.237170e-05	2.474340e-05	
12	8.560000e-04	-1.33454e-05	1.237170e-05	2.474340e-05	
13	1.056000e-03	-1.33454e-05	1.237170e-05	2.474340e-05	
14	1.256000e-03	-1.33454e-05	1.237170e-05	2.474340e-05	
15	1.456000e-03	-1.33454e-05	1.237170e-05	2.474340e-05	
16	1.656000e-03	-1.33454e-05	1.237170e-05	2.474340e-05	
17	1.856000e-03	-1.33454e-05	1.237170e-05	2.474340e-05	
18	2.056000e-03	-1.33454e-05	1.237170e-05	2.474340e-05	
19	2.256000e-03	-1.33454e-05	1.237170e-05	2.474340e-05	
20	2.456000e-03	-1.33454e-05	1.237170e-05	2.474340e-05	
21	2.656000e-03	-1.33454e-05	1.237170e-05	2.474340e-05	
22	2.856000e-03	-1.33454e-05	1.237170e-05	2.474340e-05	
23	3.056000e-03	-1.33454e-05	1.237170e-05	2.474340e-05	
24	3.256000e-03	-1.33454e-05	1.237170e-05	2.474340e-05	
25	3.456000e-03	-1.33454e-05	1.237170e-05	2.474340e-05	
26	3.656000e-03	-1.33454e-05	1.237170e-05	2.474340e-05	
27	3.856000e-03	-1.33454e-05	1.237170e-05	2.474340e-05	
28	4.056000e-03	-1.33454e-05	1.237170e-05	2.474340e-05	
29	4.256000e-03	-1.33454e-05	1.237170e-05	2.474340e-05	
30	4.456000e-03	-1.33454e-05	1.237170e-05	2.474340e-05	
31	4.656000e-03	-1.33454e-05	1.237170e-05	2.474340e-05	
32	4.856000e-03	-1.33454e-05	1.237170e-05	2.474340e-05	
33	5.056000e-03	-1.33454e-05	1.237170e-05	2.474340e-05	
34	5.256000e-03	-1.33454e-05	1.237170e-05	2.474340e-05	
35	5.456000e-03	-1.33454e-05	1.237170e-05	2.474340e-05	
36	5.656000e-03	-1.33454e-05	1.237170e-05	2.474340e-05	
37	5.856000e-03	-1.33454e-05	1.237170e-05	2.474340e-05	
38	6.056000e-03	-1.33454e-05	1.237170e-05	2.474340e-05	
39	6.256000e-03	-1.33454e-05	1.237170e-05	2.474340e-05	
40	6.456000e-03	-1.33454e-05	1.237170e-05	2.474340e-05	
41	6.656000e-03	-1.33454e-05	1.237170e-05	2.474340e-05	
42	6.856000e-03	-1.33454e-05	1.237170e-05	2.474340e-05	
43	7.056000e-03	-1.33454e-05	1.237170e-05	2.474340e-05	
44	7.256000e-03	-1.33454e-05	1.237170e-05	2.474340e-05	
45	7.456000e-03	-1.33454e-05	1.237170e-05	2.474340e-05	
46	7.656000e-03	-1.33454e-05	1.237170e-05	2.474340e-05	
47	7.856000e-03	-1.33454e-05	1.237170e-05	2.474340e-05	
48	8.056000e-03	-1.33454e-05	1.237170e-05	2.474340e-05	
49	8.256000e-03	-1.33454e-05	1.237170e-05	2.474340e-05	
50	8.456000e-03	-1.33454e-05	1.237170e-05	2.474340e-05	
51	8.656000e-03	-1.33454e-05	1.237170e-05	2.474340e-05	
52	8.856000e-03	-1.33454e-05	1.237170e-05	2.474340e-05	
53	9.056000e-03	-1.33454e-05	1.237170e-05	2.474340e-05	
54	9.256000e-03	-1.33454e-05	1.237170e-05	2.474340e-05	

Index   time            a.x1.a4#branch_ a.x1.a5#branch_ a.x1.a6#branch_ 
--------------------------------------------------------------------------------
55	9.456000e-03	-1.33454e-05	1.237170e-05	2.474340e-05	
56	9.656000e-03	-1.33454e-05	1.237170e-05	2.474340e-05	
57	9.856000e-03	-1.33454e-05	1.237170e-05	2.474340e-05	
58	1.000000e-02	-1.33454e-05	1.237170e-05	2.474340e-05	

                 * /home/sumanto/desktop/hackathon/dac/dac.cir
                 Transient Analysis  Mon Feb  7 03:26:29  2022
--------------------------------------------------------------------------------
Index   time            a.x1.a7#branch_ a.x1.a8#branch_ a.x1.a9#branch_ 
--------------------------------------------------------------------------------
0	0.000000e+00	4.948680e-05	-2.13526e-04	1.979472e-04	
1	1.000000e-06	4.948680e-05	-2.13526e-04	1.979472e-04	
2	2.000000e-06	4.948680e-05	-2.13526e-04	1.979472e-04	
3	4.000000e-06	4.948680e-05	-2.13526e-04	1.979472e-04	
4	8.000000e-06	4.948680e-05	-2.13526e-04	1.979472e-04	
5	1.600000e-05	4.948680e-05	-2.13526e-04	1.979472e-04	
6	3.200000e-05	4.948680e-05	-2.13526e-04	1.979472e-04	
7	6.400000e-05	4.948680e-05	-2.13526e-04	1.979472e-04	
8	1.280000e-04	4.948680e-05	-2.13526e-04	1.979472e-04	
9	2.560000e-04	4.948680e-05	-2.13526e-04	1.979472e-04	
10	4.560000e-04	4.948680e-05	-2.13526e-04	1.979472e-04	
11	6.560000e-04	4.948680e-05	-2.13526e-04	1.979472e-04	
12	8.560000e-04	4.948680e-05	-2.13526e-04	1.979472e-04	
13	1.056000e-03	4.948680e-05	-2.13526e-04	1.979472e-04	
14	1.256000e-03	4.948680e-05	-2.13526e-04	1.979472e-04	
15	1.456000e-03	4.948680e-05	-2.13526e-04	1.979472e-04	
16	1.656000e-03	4.948680e-05	-2.13526e-04	1.979472e-04	
17	1.856000e-03	4.948680e-05	-2.13526e-04	1.979472e-04	
18	2.056000e-03	4.948680e-05	-2.13526e-04	1.979472e-04	
19	2.256000e-03	4.948680e-05	-2.13526e-04	1.979472e-04	
20	2.456000e-03	4.948680e-05	-2.13526e-04	1.979472e-04	
21	2.656000e-03	4.948680e-05	-2.13526e-04	1.979472e-04	
22	2.856000e-03	4.948680e-05	-2.13526e-04	1.979472e-04	
23	3.056000e-03	4.948680e-05	-2.13526e-04	1.979472e-04	
24	3.256000e-03	4.948680e-05	-2.13526e-04	1.979472e-04	
25	3.456000e-03	4.948680e-05	-2.13526e-04	1.979472e-04	
26	3.656000e-03	4.948680e-05	-2.13526e-04	1.979472e-04	
27	3.856000e-03	4.948680e-05	-2.13526e-04	1.979472e-04	
28	4.056000e-03	4.948680e-05	-2.13526e-04	1.979472e-04	
29	4.256000e-03	4.948680e-05	-2.13526e-04	1.979472e-04	
30	4.456000e-03	4.948680e-05	-2.13526e-04	1.979472e-04	
31	4.656000e-03	4.948680e-05	-2.13526e-04	1.979472e-04	
32	4.856000e-03	4.948680e-05	-2.13526e-04	1.979472e-04	
33	5.056000e-03	4.948680e-05	-2.13526e-04	1.979472e-04	
34	5.256000e-03	4.948680e-05	-2.13526e-04	1.979472e-04	
35	5.456000e-03	4.948680e-05	-2.13526e-04	1.979472e-04	
36	5.656000e-03	4.948680e-05	-2.13526e-04	1.979472e-04	
37	5.856000e-03	4.948680e-05	-2.13526e-04	1.979472e-04	
38	6.056000e-03	4.948680e-05	-2.13526e-04	1.979472e-04	
39	6.256000e-03	4.948680e-05	-2.13526e-04	1.979472e-04	
40	6.456000e-03	4.948680e-05	-2.13526e-04	1.979472e-04	
41	6.656000e-03	4.948680e-05	-2.13526e-04	1.979472e-04	
42	6.856000e-03	4.948680e-05	-2.13526e-04	1.979472e-04	
43	7.056000e-03	4.948680e-05	-2.13526e-04	1.979472e-04	
44	7.256000e-03	4.948680e-05	-2.13526e-04	1.979472e-04	
45	7.456000e-03	4.948680e-05	-2.13526e-04	1.979472e-04	
46	7.656000e-03	4.948680e-05	-2.13526e-04	1.979472e-04	
47	7.856000e-03	4.948680e-05	-2.13526e-04	1.979472e-04	
48	8.056000e-03	4.948680e-05	-2.13526e-04	1.979472e-04	
49	8.256000e-03	4.948680e-05	-2.13526e-04	1.979472e-04	
50	8.456000e-03	4.948680e-05	-2.13526e-04	1.979472e-04	
51	8.656000e-03	4.948680e-05	-2.13526e-04	1.979472e-04	
52	8.856000e-03	4.948680e-05	-2.13526e-04	1.979472e-04	
53	9.056000e-03	4.948680e-05	-2.13526e-04	1.979472e-04	
54	9.256000e-03	4.948680e-05	-2.13526e-04	1.979472e-04	

Index   time            a.x1.a7#branch_ a.x1.a8#branch_ a.x1.a9#branch_ 
--------------------------------------------------------------------------------
55	9.456000e-03	4.948680e-05	-2.13526e-04	1.979472e-04	
56	9.656000e-03	4.948680e-05	-2.13526e-04	1.979472e-04	
57	9.856000e-03	4.948680e-05	-2.13526e-04	1.979472e-04	
58	1.000000e-02	4.948680e-05	-2.13526e-04	1.979472e-04	

                 * /home/sumanto/desktop/hackathon/dac/dac.cir
                 Transient Analysis  Mon Feb  7 03:26:29  2022
--------------------------------------------------------------------------------
Index   time            a.x1.a10#branch a.x1.a11#branch v1#branch       
--------------------------------------------------------------------------------
0	0.000000e+00	-8.54106e-04	7.917889e-04	0.000000e+00	
1	1.000000e-06	-8.54106e-04	7.917889e-04	0.000000e+00	
2	2.000000e-06	-8.54106e-04	7.917889e-04	0.000000e+00	
3	4.000000e-06	-8.54106e-04	7.917889e-04	0.000000e+00	
4	8.000000e-06	-8.54106e-04	7.917889e-04	0.000000e+00	
5	1.600000e-05	-8.54106e-04	7.917889e-04	0.000000e+00	
6	3.200000e-05	-8.54106e-04	7.917889e-04	0.000000e+00	
7	6.400000e-05	-8.54106e-04	7.917889e-04	0.000000e+00	
8	1.280000e-04	-8.54106e-04	7.917889e-04	0.000000e+00	
9	2.560000e-04	-8.54106e-04	7.917889e-04	0.000000e+00	
10	4.560000e-04	-8.54106e-04	7.917889e-04	0.000000e+00	
11	6.560000e-04	-8.54106e-04	7.917889e-04	0.000000e+00	
12	8.560000e-04	-8.54106e-04	7.917889e-04	0.000000e+00	
13	1.056000e-03	-8.54106e-04	7.917889e-04	0.000000e+00	
14	1.256000e-03	-8.54106e-04	7.917889e-04	0.000000e+00	
15	1.456000e-03	-8.54106e-04	7.917889e-04	0.000000e+00	
16	1.656000e-03	-8.54106e-04	7.917889e-04	0.000000e+00	
17	1.856000e-03	-8.54106e-04	7.917889e-04	0.000000e+00	
18	2.056000e-03	-8.54106e-04	7.917889e-04	0.000000e+00	
19	2.256000e-03	-8.54106e-04	7.917889e-04	0.000000e+00	
20	2.456000e-03	-8.54106e-04	7.917889e-04	0.000000e+00	
21	2.656000e-03	-8.54106e-04	7.917889e-04	0.000000e+00	
22	2.856000e-03	-8.54106e-04	7.917889e-04	0.000000e+00	
23	3.056000e-03	-8.54106e-04	7.917889e-04	0.000000e+00	
24	3.256000e-03	-8.54106e-04	7.917889e-04	0.000000e+00	
25	3.456000e-03	-8.54106e-04	7.917889e-04	0.000000e+00	
26	3.656000e-03	-8.54106e-04	7.917889e-04	0.000000e+00	
27	3.856000e-03	-8.54106e-04	7.917889e-04	0.000000e+00	
28	4.056000e-03	-8.54106e-04	7.917889e-04	0.000000e+00	
29	4.256000e-03	-8.54106e-04	7.917889e-04	0.000000e+00	
30	4.456000e-03	-8.54106e-04	7.917889e-04	0.000000e+00	
31	4.656000e-03	-8.54106e-04	7.917889e-04	0.000000e+00	
32	4.856000e-03	-8.54106e-04	7.917889e-04	0.000000e+00	
33	5.056000e-03	-8.54106e-04	7.917889e-04	0.000000e+00	
34	5.256000e-03	-8.54106e-04	7.917889e-04	0.000000e+00	
35	5.456000e-03	-8.54106e-04	7.917889e-04	0.000000e+00	
36	5.656000e-03	-8.54106e-04	7.917889e-04	0.000000e+00	
37	5.856000e-03	-8.54106e-04	7.917889e-04	0.000000e+00	
38	6.056000e-03	-8.54106e-04	7.917889e-04	0.000000e+00	
39	6.256000e-03	-8.54106e-04	7.917889e-04	0.000000e+00	
40	6.456000e-03	-8.54106e-04	7.917889e-04	0.000000e+00	
41	6.656000e-03	-8.54106e-04	7.917889e-04	0.000000e+00	
42	6.856000e-03	-8.54106e-04	7.917889e-04	0.000000e+00	
43	7.056000e-03	-8.54106e-04	7.917889e-04	0.000000e+00	
44	7.256000e-03	-8.54106e-04	7.917889e-04	0.000000e+00	
45	7.456000e-03	-8.54106e-04	7.917889e-04	0.000000e+00	
46	7.656000e-03	-8.54106e-04	7.917889e-04	0.000000e+00	
47	7.856000e-03	-8.54106e-04	7.917889e-04	0.000000e+00	
48	8.056000e-03	-8.54106e-04	7.917889e-04	0.000000e+00	
49	8.256000e-03	-8.54106e-04	7.917889e-04	0.000000e+00	
50	8.456000e-03	-8.54106e-04	7.917889e-04	0.000000e+00	
51	8.656000e-03	-8.54106e-04	7.917889e-04	0.000000e+00	
52	8.856000e-03	-8.54106e-04	7.917889e-04	0.000000e+00	
53	9.056000e-03	-8.54106e-04	7.917889e-04	0.000000e+00	
54	9.256000e-03	-8.54106e-04	7.917889e-04	0.000000e+00	

Index   time            a.x1.a10#branch a.x1.a11#branch v1#branch       
--------------------------------------------------------------------------------
55	9.456000e-03	-8.54106e-04	7.917889e-04	0.000000e+00	
56	9.656000e-03	-8.54106e-04	7.917889e-04	0.000000e+00	
57	9.856000e-03	-8.54106e-04	7.917889e-04	0.000000e+00	
58	1.000000e-02	-8.54106e-04	7.917889e-04	0.000000e+00	
