                * /home/sumanto/desktop/verilog/esim/nor/nor.cir
                Transient Analysis  Mon Nov  8 23:33:35  2021
--------------------------------------------------------------------------------
Index   time            in1             in2             out             
--------------------------------------------------------------------------------
0	0.000000e+00	0.000000e+00	0.000000e+00	5.000000e+00	
1	1.000000e-06	5.000000e-02	5.000000e-02	5.000000e+00	
2	2.000000e-06	1.000000e-01	1.000000e-01	5.000000e+00	
3	4.000000e-06	2.000000e-01	2.000000e-01	5.000000e+00	
4	8.000000e-06	4.000000e-01	4.000000e-01	5.000000e+00	
5	1.600000e-05	8.000000e-01	8.000000e-01	5.000000e+00	
6	3.200000e-05	1.600000e+00	1.600000e+00	5.000000e+00	
7	3.200200e-05	1.600100e+00	1.600100e+00	5.000000e+00	
8	3.200209e-05	1.600105e+00	1.600105e+00	4.550000e+00	
9	3.200227e-05	1.600114e+00	1.600114e+00	3.650000e+00	
10	3.200263e-05	1.600132e+00	1.600132e+00	1.850000e+00	
11	3.200290e-05	1.600145e+00	1.600145e+00	5.000000e-01	
12	3.200297e-05	1.600149e+00	1.600149e+00	5.000000e-01	
13	3.200312e-05	1.600156e+00	1.600156e+00	5.000000e-01	
14	3.200340e-05	1.600170e+00	1.600170e+00	5.000000e-01	
15	3.200398e-05	1.600199e+00	1.600199e+00	5.000000e-01	
16	3.200513e-05	1.600257e+00	1.600257e+00	5.000000e-01	
17	3.200744e-05	1.600372e+00	1.600372e+00	5.000000e-01	
18	3.201204e-05	1.600602e+00	1.600602e+00	5.000000e-01	
19	3.202126e-05	1.601063e+00	1.601063e+00	5.000000e-01	
20	3.203969e-05	1.601985e+00	1.601985e+00	5.000000e-01	
21	3.207656e-05	1.603828e+00	1.603828e+00	5.000000e-01	
22	3.215028e-05	1.607514e+00	1.607514e+00	5.000000e-01	
23	3.229774e-05	1.614887e+00	1.614887e+00	5.000000e-01	
24	3.259265e-05	1.629633e+00	1.629633e+00	5.000000e-01	
25	3.318248e-05	1.659124e+00	1.659124e+00	5.000000e-01	
26	3.436212e-05	1.718106e+00	1.718106e+00	5.000000e-01	
27	3.672142e-05	1.836071e+00	1.836071e+00	5.000000e-01	
28	4.144001e-05	2.072001e+00	2.072001e+00	5.000000e-01	
29	4.144201e-05	2.072101e+00	2.072101e+00	5.000000e-01	
30	4.144210e-05	2.072105e+00	2.072105e+00	9.500000e-01	
31	4.144228e-05	2.072114e+00	2.072114e+00	1.850000e+00	
32	4.144264e-05	2.072132e+00	2.072132e+00	3.650000e+00	
33	4.144291e-05	2.072146e+00	2.072146e+00	5.000000e+00	
34	4.144298e-05	2.072149e+00	2.072149e+00	5.000000e+00	
35	4.144313e-05	2.072156e+00	2.072156e+00	5.000000e+00	
36	4.144342e-05	2.072171e+00	2.072171e+00	5.000000e+00	
37	4.144399e-05	2.072200e+00	2.072200e+00	5.000000e+00	
38	4.144514e-05	2.072257e+00	2.072257e+00	5.000000e+00	
39	4.144745e-05	2.072372e+00	2.072372e+00	5.000000e+00	
40	4.145206e-05	2.072603e+00	2.072603e+00	5.000000e+00	
41	4.146127e-05	2.073064e+00	2.073064e+00	5.000000e+00	
42	4.147970e-05	2.073985e+00	2.073985e+00	5.000000e+00	
43	4.151657e-05	2.075828e+00	2.075828e+00	5.000000e+00	
44	4.159030e-05	2.079515e+00	2.079515e+00	5.000000e+00	
45	4.173775e-05	2.086888e+00	2.086888e+00	5.000000e+00	
46	4.203266e-05	2.101633e+00	2.101633e+00	5.000000e+00	
47	4.262249e-05	2.131124e+00	2.131124e+00	5.000000e+00	
48	4.380214e-05	2.190107e+00	2.190107e+00	5.000000e+00	
49	4.616143e-05	2.308072e+00	2.308072e+00	5.000000e+00	
50	5.088002e-05	2.544001e+00	2.544001e+00	5.000000e+00	
51	6.031721e-05	3.015860e+00	3.015860e+00	5.000000e+00	
52	7.919158e-05	3.959579e+00	3.959579e+00	5.000000e+00	
53	1.000000e-04	5.000000e+00	5.000000e+00	5.000000e+00	
54	1.037749e-04	5.000000e+00	5.000000e+00	5.000000e+00	

Index   time            in1             in2             out             
--------------------------------------------------------------------------------
55	1.113246e-04	5.000000e+00	5.000000e+00	5.000000e+00	
56	1.264241e-04	5.000000e+00	5.000000e+00	5.000000e+00	
57	1.566231e-04	5.000000e+00	5.000000e+00	5.000000e+00	
58	2.170211e-04	5.000000e+00	5.000000e+00	5.000000e+00	
59	3.378170e-04	5.000000e+00	5.000000e+00	5.000000e+00	
60	5.794089e-04	5.000000e+00	5.000000e+00	5.000000e+00	
61	1.062593e-03	5.000000e+00	5.000000e+00	5.000000e+00	
62	2.028960e-03	5.000000e+00	5.000000e+00	5.000000e+00	
63	3.961696e-03	5.000000e+00	5.000000e+00	5.000000e+00	
64	7.827166e-03	5.000000e+00	5.000000e+00	5.000000e+00	
65	1.555811e-02	5.000000e+00	5.000000e+00	5.000000e+00	
66	3.101999e-02	5.000000e+00	5.000000e+00	5.000000e+00	
67	6.194375e-02	5.000000e+00	5.000000e+00	5.000000e+00	
68	1.237913e-01	5.000000e+00	5.000000e+00	5.000000e+00	
69	2.474863e-01	5.000000e+00	5.000000e+00	5.000000e+00	
70	4.948765e-01	5.000000e+00	5.000000e+00	5.000000e+00	
71	8.948765e-01	5.000000e+00	5.000000e+00	5.000000e+00	
72	1.000100e+00	5.000000e+00	5.000000e+00	5.000000e+00	
73	1.000110e+00	4.500000e+00	5.000000e+00	5.000000e+00	
74	1.000130e+00	3.500000e+00	5.000000e+00	5.000000e+00	
75	1.000170e+00	1.500000e+00	5.000000e+00	5.000000e+00	
76	1.000170e+00	1.499900e+00	5.000000e+00	5.000000e+00	
77	1.000170e+00	1.499895e+00	5.000000e+00	4.550000e+00	
78	1.000170e+00	1.499886e+00	5.000000e+00	3.650000e+00	
79	1.000170e+00	1.499868e+00	5.000000e+00	1.850000e+00	
80	1.000170e+00	1.499855e+00	5.000000e+00	5.000000e-01	
81	1.000170e+00	1.499851e+00	5.000000e+00	5.000000e-01	
82	1.000170e+00	1.499844e+00	5.000000e+00	5.000000e-01	
83	1.000170e+00	1.499830e+00	5.000000e+00	5.000000e-01	
84	1.000170e+00	1.499801e+00	5.000000e+00	5.000000e-01	
85	1.000170e+00	1.499743e+00	5.000000e+00	5.000000e-01	
86	1.000170e+00	1.499628e+00	5.000000e+00	5.000000e-01	
87	1.000170e+00	1.499398e+00	5.000000e+00	5.000000e-01	
88	1.000170e+00	1.498937e+00	5.000000e+00	5.000000e-01	
89	1.000170e+00	1.498015e+00	5.000000e+00	5.000000e-01	
90	1.000170e+00	1.496172e+00	5.000000e+00	5.000000e-01	
91	1.000170e+00	1.492486e+00	5.000000e+00	5.000000e-01	
92	1.000170e+00	1.485113e+00	5.000000e+00	5.000000e-01	
93	1.000171e+00	1.470367e+00	5.000000e+00	5.000000e-01	
94	1.000171e+00	1.440876e+00	5.000000e+00	5.000000e-01	
95	1.000172e+00	1.381894e+00	5.000000e+00	5.000000e-01	
96	1.000175e+00	1.263929e+00	5.000000e+00	5.000000e-01	
97	1.000179e+00	1.027999e+00	5.000000e+00	5.000000e-01	
98	1.000189e+00	5.561401e-01	5.000000e+00	5.000000e-01	
99	1.000189e+00	5.560401e-01	5.000000e+00	5.000000e-01	
100	1.000189e+00	5.560396e-01	5.000000e+00	4.500000e-01	
101	1.000189e+00	5.560386e-01	5.000000e+00	3.500000e-01	
102	1.000189e+00	5.560366e-01	5.000000e+00	1.500000e-01	
103	1.000189e+00	5.560326e-01	5.000000e+00	0.000000e+00	
104	1.000189e+00	5.560246e-01	5.000000e+00	0.000000e+00	
105	1.000189e+00	5.560086e-01	5.000000e+00	0.000000e+00	
106	1.000189e+00	5.559766e-01	5.000000e+00	0.000000e+00	
107	1.000189e+00	5.559126e-01	5.000000e+00	0.000000e+00	
108	1.000189e+00	5.557846e-01	5.000000e+00	0.000000e+00	
109	1.000189e+00	5.555286e-01	5.000000e+00	0.000000e+00	
110	1.000189e+00	5.550166e-01	5.000000e+00	0.000000e+00	
111	1.000189e+00	5.539926e-01	5.000000e+00	0.000000e+00	
112	1.000189e+00	5.519446e-01	5.000000e+00	0.000000e+00	

Index   time            in1             in2             out             
--------------------------------------------------------------------------------
113	1.000189e+00	5.478486e-01	5.000000e+00	0.000000e+00	
114	1.000189e+00	5.396566e-01	5.000000e+00	0.000000e+00	
115	1.000190e+00	5.232726e-01	5.000000e+00	0.000000e+00	
116	1.000190e+00	4.905046e-01	5.000000e+00	0.000000e+00	
117	1.000192e+00	4.249686e-01	5.000000e+00	0.000000e+00	
118	1.000194e+00	2.938966e-01	5.000000e+00	0.000000e+00	
119	1.000199e+00	3.175258e-02	5.000000e+00	0.000000e+00	
120	1.000200e+00	0.000000e+00	5.000000e+00	0.000000e+00	
121	1.000201e+00	0.000000e+00	5.000000e+00	0.000000e+00	
122	1.000203e+00	0.000000e+00	5.000000e+00	0.000000e+00	
123	1.000207e+00	0.000000e+00	5.000000e+00	0.000000e+00	
124	1.000216e+00	0.000000e+00	5.000000e+00	0.000000e+00	
125	1.000233e+00	0.000000e+00	5.000000e+00	0.000000e+00	
126	1.000266e+00	0.000000e+00	5.000000e+00	0.000000e+00	
127	1.000333e+00	0.000000e+00	5.000000e+00	0.000000e+00	
128	1.000467e+00	0.000000e+00	5.000000e+00	0.000000e+00	
129	1.000736e+00	0.000000e+00	5.000000e+00	0.000000e+00	
130	1.001273e+00	0.000000e+00	5.000000e+00	0.000000e+00	
131	1.002346e+00	0.000000e+00	5.000000e+00	0.000000e+00	
132	1.004494e+00	0.000000e+00	5.000000e+00	0.000000e+00	
133	1.008789e+00	0.000000e+00	5.000000e+00	0.000000e+00	
134	1.017379e+00	0.000000e+00	5.000000e+00	0.000000e+00	
135	1.034559e+00	0.000000e+00	5.000000e+00	0.000000e+00	
136	1.068918e+00	0.000000e+00	5.000000e+00	0.000000e+00	
137	1.137638e+00	0.000000e+00	5.000000e+00	0.000000e+00	
138	1.275077e+00	0.000000e+00	5.000000e+00	0.000000e+00	
139	1.549955e+00	0.000000e+00	5.000000e+00	0.000000e+00	
140	1.949955e+00	0.000000e+00	5.000000e+00	0.000000e+00	
141	2.000000e+00	0.000000e+00	5.000000e+00	0.000000e+00	
142	2.000010e+00	5.000000e-01	5.000000e+00	0.000000e+00	
143	2.000030e+00	1.500000e+00	5.000000e+00	0.000000e+00	
144	2.000030e+00	1.500100e+00	5.000000e+00	0.000000e+00	
145	2.000030e+00	1.500101e+00	5.000000e+00	5.000000e-02	
146	2.000030e+00	1.500102e+00	5.000000e+00	1.500000e-01	
147	2.000030e+00	1.500104e+00	5.000000e+00	3.500000e-01	
148	2.000030e+00	1.500108e+00	5.000000e+00	5.000000e-01	
149	2.000030e+00	1.500116e+00	5.000000e+00	5.000000e-01	
150	2.000030e+00	1.500132e+00	5.000000e+00	5.000000e-01	
151	2.000030e+00	1.500164e+00	5.000000e+00	5.000000e-01	
152	2.000030e+00	1.500228e+00	5.000000e+00	5.000000e-01	
153	2.000030e+00	1.500356e+00	5.000000e+00	5.000000e-01	
154	2.000030e+00	1.500612e+00	5.000000e+00	5.000000e-01	
155	2.000030e+00	1.501124e+00	5.000000e+00	5.000000e-01	
156	2.000030e+00	1.502148e+00	5.000000e+00	5.000000e-01	
157	2.000030e+00	1.504196e+00	5.000000e+00	5.000000e-01	
158	2.000030e+00	1.508292e+00	5.000000e+00	5.000000e-01	
159	2.000030e+00	1.516484e+00	5.000000e+00	5.000000e-01	
160	2.000031e+00	1.532868e+00	5.000000e+00	5.000000e-01	
161	2.000031e+00	1.565636e+00	5.000000e+00	5.000000e-01	
162	2.000033e+00	1.631172e+00	5.000000e+00	5.000000e-01	
163	2.000035e+00	1.762244e+00	5.000000e+00	5.000000e-01	
164	2.000040e+00	2.024388e+00	5.000000e+00	5.000000e-01	
165	2.000040e+00	2.024488e+00	5.000000e+00	5.000000e-01	
166	2.000040e+00	2.024492e+00	5.000000e+00	9.500000e-01	
167	2.000040e+00	2.024501e+00	5.000000e+00	1.850000e+00	
168	2.000040e+00	2.024519e+00	5.000000e+00	3.650000e+00	
169	2.000040e+00	2.024533e+00	5.000000e+00	5.000000e+00	
170	2.000040e+00	2.024536e+00	5.000000e+00	5.000000e+00	

Index   time            in1             in2             out             
--------------------------------------------------------------------------------
171	2.000040e+00	2.024543e+00	5.000000e+00	5.000000e+00	
172	2.000040e+00	2.024558e+00	5.000000e+00	5.000000e+00	
173	2.000040e+00	2.024587e+00	5.000000e+00	5.000000e+00	
174	2.000040e+00	2.024644e+00	5.000000e+00	5.000000e+00	
175	2.000040e+00	2.024759e+00	5.000000e+00	5.000000e+00	
176	2.000040e+00	2.024990e+00	5.000000e+00	5.000000e+00	
177	2.000041e+00	2.025451e+00	5.000000e+00	5.000000e+00	
178	2.000041e+00	2.026372e+00	5.000000e+00	5.000000e+00	
179	2.000041e+00	2.028215e+00	5.000000e+00	5.000000e+00	
180	2.000041e+00	2.031902e+00	5.000000e+00	5.000000e+00	
181	2.000041e+00	2.039275e+00	5.000000e+00	5.000000e+00	
182	2.000041e+00	2.054020e+00	5.000000e+00	5.000000e+00	
183	2.000042e+00	2.083511e+00	5.000000e+00	5.000000e+00	
184	2.000043e+00	2.142494e+00	5.000000e+00	5.000000e+00	
185	2.000045e+00	2.260459e+00	5.000000e+00	5.000000e+00	
186	2.000050e+00	2.496388e+00	5.000000e+00	5.000000e+00	
187	2.000059e+00	2.968247e+00	5.000000e+00	5.000000e+00	
188	2.000078e+00	3.911966e+00	5.000000e+00	5.000000e+00	
189	2.000100e+00	5.000000e+00	5.000000e+00	5.000000e+00	
190	2.000104e+00	5.000000e+00	4.811256e+00	5.000000e+00	
191	2.000111e+00	5.000000e+00	4.433769e+00	5.000000e+00	
192	2.000126e+00	5.000000e+00	3.678794e+00	5.000000e+00	
193	2.000157e+00	5.000000e+00	2.168845e+00	5.000000e+00	
194	2.000200e+00	5.000000e+00	0.000000e+00	5.000000e+00	
195	2.000200e+00	5.000000e+00	0.000000e+00	5.000000e+00	
196	2.000200e+00	5.000000e+00	0.000000e+00	4.500000e+00	
197	2.000200e+00	5.000000e+00	0.000000e+00	3.500000e+00	
198	2.000200e+00	5.000000e+00	0.000000e+00	1.500000e+00	
199	2.000200e+00	5.000000e+00	0.000000e+00	0.000000e+00	
200	2.000200e+00	5.000000e+00	0.000000e+00	0.000000e+00	
201	2.000200e+00	5.000000e+00	0.000000e+00	0.000000e+00	
202	2.000200e+00	5.000000e+00	0.000000e+00	0.000000e+00	
203	2.000200e+00	5.000000e+00	0.000000e+00	0.000000e+00	
204	2.000200e+00	5.000000e+00	0.000000e+00	0.000000e+00	
205	2.000200e+00	5.000000e+00	0.000000e+00	0.000000e+00	
206	2.000200e+00	5.000000e+00	0.000000e+00	0.000000e+00	
207	2.000200e+00	5.000000e+00	0.000000e+00	0.000000e+00	
208	2.000200e+00	5.000000e+00	0.000000e+00	0.000000e+00	
209	2.000200e+00	5.000000e+00	0.000000e+00	0.000000e+00	
210	2.000200e+00	5.000000e+00	0.000000e+00	0.000000e+00	
211	2.000200e+00	5.000000e+00	0.000000e+00	0.000000e+00	
212	2.000201e+00	5.000000e+00	0.000000e+00	0.000000e+00	
213	2.000201e+00	5.000000e+00	0.000000e+00	0.000000e+00	
214	2.000203e+00	5.000000e+00	0.000000e+00	0.000000e+00	
215	2.000205e+00	5.000000e+00	0.000000e+00	0.000000e+00	
216	2.000210e+00	5.000000e+00	0.000000e+00	0.000000e+00	
217	2.000221e+00	5.000000e+00	0.000000e+00	0.000000e+00	
218	2.000242e+00	5.000000e+00	0.000000e+00	0.000000e+00	
219	2.000284e+00	5.000000e+00	0.000000e+00	0.000000e+00	
220	2.000368e+00	5.000000e+00	0.000000e+00	0.000000e+00	
221	2.000536e+00	5.000000e+00	0.000000e+00	0.000000e+00	
222	2.000871e+00	5.000000e+00	0.000000e+00	0.000000e+00	
223	2.001542e+00	5.000000e+00	0.000000e+00	0.000000e+00	
224	2.002884e+00	5.000000e+00	0.000000e+00	0.000000e+00	
225	2.005569e+00	5.000000e+00	0.000000e+00	0.000000e+00	
226	2.010937e+00	5.000000e+00	0.000000e+00	0.000000e+00	
227	2.021675e+00	5.000000e+00	0.000000e+00	0.000000e+00	
228	2.043150e+00	5.000000e+00	0.000000e+00	0.000000e+00	

Index   time            in1             in2             out             
--------------------------------------------------------------------------------
229	2.086099e+00	5.000000e+00	0.000000e+00	0.000000e+00	
230	2.171999e+00	5.000000e+00	0.000000e+00	0.000000e+00	
231	2.343797e+00	5.000000e+00	0.000000e+00	0.000000e+00	
232	2.687395e+00	5.000000e+00	0.000000e+00	0.000000e+00	
233	3.000100e+00	5.000000e+00	0.000000e+00	0.000000e+00	
234	3.000110e+00	4.500000e+00	0.000000e+00	0.000000e+00	
235	3.000130e+00	3.500000e+00	0.000000e+00	0.000000e+00	
236	3.000170e+00	1.500000e+00	0.000000e+00	0.000000e+00	
237	3.000170e+00	1.499900e+00	0.000000e+00	0.000000e+00	
238	3.000170e+00	1.499899e+00	0.000000e+00	5.000000e-02	
239	3.000170e+00	1.499898e+00	0.000000e+00	1.500000e-01	
240	3.000170e+00	1.499896e+00	0.000000e+00	3.500000e-01	
241	3.000170e+00	1.499892e+00	0.000000e+00	5.000000e-01	
242	3.000170e+00	1.499884e+00	0.000000e+00	5.000000e-01	
243	3.000170e+00	1.499868e+00	0.000000e+00	5.000000e-01	
244	3.000170e+00	1.499836e+00	0.000000e+00	5.000000e-01	
245	3.000170e+00	1.499772e+00	0.000000e+00	5.000000e-01	
246	3.000170e+00	1.499644e+00	0.000000e+00	5.000000e-01	
247	3.000170e+00	1.499388e+00	0.000000e+00	5.000000e-01	
248	3.000170e+00	1.498876e+00	0.000000e+00	5.000000e-01	
249	3.000170e+00	1.497852e+00	0.000000e+00	5.000000e-01	
250	3.000170e+00	1.495804e+00	0.000000e+00	5.000000e-01	
251	3.000170e+00	1.491708e+00	0.000000e+00	5.000000e-01	
252	3.000170e+00	1.483516e+00	0.000000e+00	5.000000e-01	
253	3.000171e+00	1.467132e+00	0.000000e+00	5.000000e-01	
254	3.000171e+00	1.434364e+00	0.000000e+00	5.000000e-01	
255	3.000173e+00	1.368828e+00	0.000000e+00	5.000000e-01	
256	3.000175e+00	1.237756e+00	0.000000e+00	5.000000e-01	
257	3.000180e+00	9.756125e-01	0.000000e+00	5.000000e-01	
258	3.000180e+00	9.755125e-01	0.000000e+00	5.000000e-01	
259	3.000180e+00	9.755080e-01	0.000000e+00	9.500000e-01	
260	3.000180e+00	9.754990e-01	0.000000e+00	1.850000e+00	
261	3.000180e+00	9.754810e-01	0.000000e+00	3.650000e+00	
262	3.000180e+00	9.754675e-01	0.000000e+00	5.000000e+00	
263	3.000180e+00	9.754639e-01	0.000000e+00	5.000000e+00	
264	3.000180e+00	9.754567e-01	0.000000e+00	5.000000e+00	
265	3.000180e+00	9.754423e-01	0.000000e+00	5.000000e+00	
266	3.000180e+00	9.754135e-01	0.000000e+00	5.000000e+00	
267	3.000180e+00	9.753559e-01	0.000000e+00	5.000000e+00	
268	3.000180e+00	9.752407e-01	0.000000e+00	5.000000e+00	
269	3.000180e+00	9.750103e-01	0.000000e+00	5.000000e+00	
270	3.000181e+00	9.745495e-01	0.000000e+00	5.000000e+00	
271	3.000181e+00	9.736279e-01	0.000000e+00	5.000000e+00	
272	3.000181e+00	9.717847e-01	0.000000e+00	5.000000e+00	
273	3.000181e+00	9.680983e-01	0.000000e+00	5.000000e+00	
274	3.000181e+00	9.607255e-01	0.000000e+00	5.000000e+00	
275	3.000181e+00	9.459799e-01	0.000000e+00	5.000000e+00	
276	3.000182e+00	9.164887e-01	0.000000e+00	5.000000e+00	
277	3.000183e+00	8.575062e-01	0.000000e+00	5.000000e+00	
278	3.000185e+00	7.395414e-01	0.000000e+00	5.000000e+00	
279	3.000190e+00	5.036118e-01	0.000000e+00	5.000000e+00	
280	3.000199e+00	3.175258e-02	0.000000e+00	5.000000e+00	
281	3.000200e+00	0.000000e+00	0.000000e+00	5.000000e+00	
282	3.000201e+00	0.000000e+00	0.000000e+00	5.000000e+00	
283	3.000204e+00	0.000000e+00	0.000000e+00	5.000000e+00	
284	3.000209e+00	0.000000e+00	0.000000e+00	5.000000e+00	
285	3.000219e+00	0.000000e+00	0.000000e+00	5.000000e+00	
286	3.000239e+00	0.000000e+00	0.000000e+00	5.000000e+00	

Index   time            in1             in2             out             
--------------------------------------------------------------------------------
287	3.000280e+00	0.000000e+00	0.000000e+00	5.000000e+00	
288	3.000361e+00	0.000000e+00	0.000000e+00	5.000000e+00	
289	3.000524e+00	0.000000e+00	0.000000e+00	5.000000e+00	
290	3.000849e+00	0.000000e+00	0.000000e+00	5.000000e+00	
291	3.001499e+00	0.000000e+00	0.000000e+00	5.000000e+00	
292	3.002800e+00	0.000000e+00	0.000000e+00	5.000000e+00	
293	3.005401e+00	0.000000e+00	0.000000e+00	5.000000e+00	
294	3.010603e+00	0.000000e+00	0.000000e+00	5.000000e+00	
295	3.021008e+00	0.000000e+00	0.000000e+00	5.000000e+00	
296	3.041817e+00	0.000000e+00	0.000000e+00	5.000000e+00	
297	3.083436e+00	0.000000e+00	0.000000e+00	5.000000e+00	
298	3.166674e+00	0.000000e+00	0.000000e+00	5.000000e+00	
299	3.333149e+00	0.000000e+00	0.000000e+00	5.000000e+00	
300	3.666099e+00	0.000000e+00	0.000000e+00	5.000000e+00	
301	4.000000e+00	0.000000e+00	0.000000e+00	5.000000e+00	
302	4.000010e+00	5.000000e-01	5.000000e-01	5.000000e+00	
303	4.000030e+00	1.500000e+00	1.500000e+00	5.000000e+00	
304	4.000030e+00	1.500100e+00	1.500100e+00	5.000000e+00	
305	4.000030e+00	1.500104e+00	1.500104e+00	4.550000e+00	
306	4.000030e+00	1.500113e+00	1.500113e+00	3.650000e+00	
307	4.000030e+00	1.500131e+00	1.500131e+00	1.850000e+00	
308	4.000030e+00	1.500145e+00	1.500145e+00	5.000000e-01	
309	4.000030e+00	1.500149e+00	1.500149e+00	5.000000e-01	
310	4.000030e+00	1.500156e+00	1.500156e+00	5.000000e-01	
311	4.000030e+00	1.500170e+00	1.500170e+00	5.000000e-01	
312	4.000030e+00	1.500199e+00	1.500199e+00	5.000000e-01	
313	4.000030e+00	1.500257e+00	1.500257e+00	5.000000e-01	
314	4.000030e+00	1.500372e+00	1.500372e+00	5.000000e-01	
315	4.000030e+00	1.500602e+00	1.500602e+00	5.000000e-01	
316	4.000030e+00	1.501063e+00	1.501063e+00	5.000000e-01	
317	4.000030e+00	1.501985e+00	1.501985e+00	5.000000e-01	
318	4.000030e+00	1.503828e+00	1.503828e+00	5.000000e-01	
319	4.000030e+00	1.507514e+00	1.507514e+00	5.000000e-01	
320	4.000030e+00	1.514887e+00	1.514887e+00	5.000000e-01	
321	4.000031e+00	1.529633e+00	1.529633e+00	5.000000e-01	
322	4.000031e+00	1.559124e+00	1.559124e+00	5.000000e-01	
323	4.000032e+00	1.618106e+00	1.618106e+00	5.000000e-01	
324	4.000035e+00	1.736071e+00	1.736071e+00	5.000000e-01	
325	4.000039e+00	1.972001e+00	1.972001e+00	5.000000e-01	
326	4.000049e+00	2.443860e+00	2.443860e+00	5.000000e-01	
327	4.000049e+00	2.443960e+00	2.443960e+00	5.000000e-01	
328	4.000049e+00	2.443964e+00	2.443964e+00	9.500000e-01	
329	4.000049e+00	2.443973e+00	2.443973e+00	1.850000e+00	
330	4.000049e+00	2.443991e+00	2.443991e+00	3.650000e+00	
331	4.000049e+00	2.444005e+00	2.444005e+00	5.000000e+00	
