    * /home/saurabh/desktop/esim/examples/differentiator/differentiator.cir
    Transient Analysis  Fri Aug 27 15:21:30  2021
--------------------------------------------------------------------------------
Index   time            ?               in              net-_c1-pad1_   
--------------------------------------------------------------------------------
0	0.000000e+00	-1.49916e+01	0.000000e+00	8.893278e-04	
1	5.000000e-06	-1.49916e+01	5.000000e-02	9.395443e-04	
2	5.362480e-06	-1.49916e+01	5.362480e-02	9.415761e-04	
3	6.087439e-06	-1.49916e+01	6.087439e-02	9.432302e-04	
4	7.537359e-06	-1.49916e+01	7.537359e-02	9.431801e-04	
5	1.043720e-05	-1.49916e+01	1.043720e-01	9.430669e-04	
6	1.623687e-05	-1.49916e+01	1.623687e-01	9.428010e-04	
7	2.783623e-05	-1.49916e+01	2.783623e-01	9.421312e-04	
8	5.103494e-05	-1.49916e+01	5.103494e-01	9.403070e-04	
9	9.743235e-05	-1.49916e+01	9.743235e-01	9.355914e-04	
10	1.902272e-04	-1.49916e+01	1.902272e+00	9.262668e-04	
11	3.758169e-04	-1.49916e+01	3.758169e+00	9.166879e-04	
12	5.000000e-04	-1.49916e+01	5.000000e+00	9.141438e-04	
13	5.371179e-04	-1.49916e+01	5.000000e+00	8.819227e-04	
14	6.113538e-04	-1.49916e+01	5.000000e+00	8.816328e-04	
15	7.598255e-04	-1.49916e+01	5.000000e+00	8.827493e-04	
16	1.056769e-03	-1.49916e+01	5.000000e+00	8.831012e-04	
17	1.650656e-03	-1.49916e+01	5.000000e+00	8.852971e-04	
18	2.650656e-03	-1.49916e+01	5.000000e+00	8.873206e-04	
19	3.650656e-03	-1.49916e+01	5.000000e+00	8.891282e-04	
20	4.650656e-03	-1.49916e+01	5.000000e+00	8.887841e-04	
21	5.650656e-03	-1.49916e+01	5.000000e+00	8.896216e-04	
22	6.650656e-03	-1.49916e+01	5.000000e+00	8.889520e-04	
23	7.650656e-03	-1.49916e+01	5.000000e+00	8.896754e-04	
24	8.650656e-03	-1.49916e+01	5.000000e+00	8.889714e-04	
25	9.650656e-03	-1.49916e+01	5.000000e+00	8.896805e-04	
26	1.065066e-02	-1.49916e+01	5.000000e+00	8.889745e-04	
27	1.165066e-02	-1.49916e+01	5.000000e+00	8.896802e-04	
28	1.265066e-02	-1.49916e+01	5.000000e+00	8.889757e-04	
29	1.365066e-02	-1.49916e+01	5.000000e+00	8.896793e-04	
30	1.465066e-02	-1.49916e+01	5.000000e+00	8.889768e-04	
31	1.565066e-02	-1.49916e+01	5.000000e+00	8.896782e-04	
32	1.665066e-02	-1.49916e+01	5.000000e+00	8.889778e-04	
33	1.765066e-02	-1.49916e+01	5.000000e+00	8.896772e-04	
34	1.865066e-02	-1.49916e+01	5.000000e+00	8.889788e-04	
35	1.965066e-02	-1.49916e+01	5.000000e+00	8.896762e-04	
36	2.065066e-02	-1.49916e+01	5.000000e+00	8.889798e-04	
37	2.165066e-02	-1.49916e+01	5.000000e+00	8.896752e-04	
38	2.265066e-02	-1.49916e+01	5.000000e+00	8.889809e-04	
39	2.365066e-02	-1.49916e+01	5.000000e+00	8.896742e-04	
40	2.465066e-02	-1.49916e+01	5.000000e+00	8.889818e-04	
41	2.500000e-02	-1.49916e+01	5.000000e+00	8.896722e-04	
42	2.505000e-02	-1.49916e+01	4.000000e+00	7.908942e-04	
43	2.515000e-02	-1.49916e+01	2.000000e+00	8.371170e-04	
44	2.535000e-02	-1.49916e+01	-2.00000e+00	8.387982e-04	
45	2.550000e-02	-1.49916e+01	-5.00000e+00	8.594849e-04	
46	2.552889e-02	-1.49916e+01	-5.00000e+00	9.022086e-04	
47	2.558668e-02	-1.49916e+01	-5.00000e+00	9.038335e-04	
48	2.570226e-02	-1.49916e+01	-5.00000e+00	9.000287e-04	
49	2.593342e-02	-1.49916e+01	-5.00000e+00	9.009073e-04	
50	2.639573e-02	-1.49916e+01	-5.00000e+00	8.956434e-04	
51	2.709043e-02	-1.49916e+01	-5.00000e+00	8.957292e-04	
52	2.794021e-02	-1.49916e+01	-5.00000e+00	8.904640e-04	
53	2.894021e-02	-1.49916e+01	-5.00000e+00	8.914833e-04	
54	2.994021e-02	-1.49916e+01	-5.00000e+00	8.883057e-04	

Index   time            ?               in              net-_c1-pad1_   
--------------------------------------------------------------------------------
55	3.094021e-02	-1.49916e+01	-5.00000e+00	8.907254e-04	
56	3.194021e-02	-1.49916e+01	-5.00000e+00	8.880580e-04	
57	3.294021e-02	-1.49916e+01	-5.00000e+00	8.906377e-04	
58	3.394021e-02	-1.49916e+01	-5.00000e+00	8.880338e-04	
59	3.494021e-02	-1.49916e+01	-5.00000e+00	8.906245e-04	
60	3.594021e-02	-1.49916e+01	-5.00000e+00	8.880345e-04	
61	3.694021e-02	-1.49916e+01	-5.00000e+00	8.906197e-04	
62	3.794021e-02	-1.49916e+01	-5.00000e+00	8.880379e-04	
63	3.894021e-02	-1.49916e+01	-5.00000e+00	8.906157e-04	
64	3.994021e-02	-1.49916e+01	-5.00000e+00	8.880417e-04	
65	4.094021e-02	-1.49916e+01	-5.00000e+00	8.906120e-04	
66	4.194021e-02	-1.49916e+01	-5.00000e+00	8.880454e-04	
67	4.294021e-02	-1.49916e+01	-5.00000e+00	8.906082e-04	
68	4.394021e-02	-1.49916e+01	-5.00000e+00	8.880491e-04	
69	4.494021e-02	-1.49916e+01	-5.00000e+00	8.906045e-04	
70	4.594021e-02	-1.49916e+01	-5.00000e+00	8.880529e-04	
71	4.694021e-02	-1.49916e+01	-5.00000e+00	8.906008e-04	
72	4.794021e-02	-1.49916e+01	-5.00000e+00	8.880566e-04	
73	4.894021e-02	-1.49916e+01	-5.00000e+00	8.905971e-04	
74	4.994021e-02	-1.49916e+01	-5.00000e+00	8.880603e-04	
75	5.000000e-02	-1.49916e+01	-5.00000e+00	8.905645e-04	
76	5.002600e-02	-1.49916e+01	-4.48009e+00	9.933730e-04	
77	5.007799e-02	-1.49916e+01	-3.44026e+00	9.736105e-04	
78	5.018197e-02	-1.49916e+01	-1.36061e+00	9.471914e-04	
79	5.038993e-02	-1.49916e+01	2.798700e+00	9.356603e-04	
80	5.050000e-02	-1.49916e+01	5.000000e+00	9.300341e-04	
81	5.052946e-02	-1.49916e+01	5.000000e+00	8.780145e-04	
82	5.058838e-02	-1.49916e+01	5.000000e+00	8.775604e-04	
83	5.070623e-02	-1.49916e+01	5.000000e+00	8.793069e-04	
84	5.094191e-02	-1.49916e+01	5.000000e+00	8.797998e-04	
85	5.141328e-02	-1.49916e+01	5.000000e+00	8.826522e-04	
86	5.210795e-02	-1.49916e+01	5.000000e+00	8.838805e-04	
87	5.296637e-02	-1.49916e+01	5.000000e+00	8.873490e-04	
88	5.396637e-02	-1.49916e+01	5.000000e+00	8.880781e-04	
89	5.496637e-02	-1.49916e+01	5.000000e+00	8.894727e-04	
90	5.596637e-02	-1.49916e+01	5.000000e+00	8.888145e-04	
91	5.696637e-02	-1.49916e+01	5.000000e+00	8.897172e-04	
92	5.796637e-02	-1.49916e+01	5.000000e+00	8.888980e-04	
93	5.896637e-02	-1.49916e+01	5.000000e+00	8.897432e-04	
94	5.996637e-02	-1.49916e+01	5.000000e+00	8.889084e-04	
95	6.096637e-02	-1.49916e+01	5.000000e+00	8.897451e-04	
96	6.196637e-02	-1.49916e+01	5.000000e+00	8.889106e-04	
97	6.296637e-02	-1.49916e+01	5.000000e+00	8.897442e-04	
98	6.396637e-02	-1.49916e+01	5.000000e+00	8.889119e-04	
99	6.496637e-02	-1.49916e+01	5.000000e+00	8.897430e-04	
100	6.596637e-02	-1.49916e+01	5.000000e+00	8.889131e-04	
101	6.696637e-02	-1.49916e+01	5.000000e+00	8.897418e-04	
102	6.796637e-02	-1.49916e+01	5.000000e+00	8.889143e-04	
103	6.896637e-02	-1.49916e+01	5.000000e+00	8.897406e-04	
104	6.996637e-02	-1.49916e+01	5.000000e+00	8.889155e-04	
105	7.096637e-02	-1.49916e+01	5.000000e+00	8.897394e-04	
106	7.196637e-02	-1.49916e+01	5.000000e+00	8.889167e-04	
107	7.296637e-02	-1.49916e+01	5.000000e+00	8.897382e-04	
108	7.396637e-02	-1.49916e+01	5.000000e+00	8.889179e-04	
109	7.496637e-02	-1.49916e+01	5.000000e+00	8.897371e-04	
110	7.500000e-02	-1.49916e+01	5.000000e+00	8.889358e-04	
111	7.502283e-02	-1.49916e+01	4.543475e+00	7.862728e-04	
112	7.506848e-02	-1.49916e+01	3.630425e+00	8.053671e-04	

Index   time            ?               in              net-_c1-pad1_   
--------------------------------------------------------------------------------
113	7.515647e-02	-1.49916e+01	1.870556e+00	8.309673e-04	
114	7.533246e-02	-1.49916e+01	-1.64918e+00	8.444154e-04	
115	7.550000e-02	-1.49916e+01	-5.00000e+00	8.530700e-04	
116	7.552790e-02	-1.49916e+01	-5.00000e+00	9.022023e-04	
117	7.558369e-02	-1.49916e+01	-5.00000e+00	9.039101e-04	
118	7.569527e-02	-1.49916e+01	-5.00000e+00	9.000685e-04	
119	7.591845e-02	-1.49916e+01	-5.00000e+00	9.010544e-04	
120	7.636479e-02	-1.49916e+01	-5.00000e+00	8.957548e-04	
121	7.705953e-02	-1.49916e+01	-5.00000e+00	8.958846e-04	
122	7.789154e-02	-1.49916e+01	-5.00000e+00	8.905334e-04	
123	7.889154e-02	-1.49916e+01	-5.00000e+00	8.915868e-04	
124	7.989154e-02	-1.49916e+01	-5.00000e+00	8.882653e-04	
125	8.089154e-02	-1.49916e+01	-5.00000e+00	8.907883e-04	
126	8.189154e-02	-1.49916e+01	-5.00000e+00	8.880025e-04	
127	8.289154e-02	-1.49916e+01	-5.00000e+00	8.906956e-04	
128	8.389154e-02	-1.49916e+01	-5.00000e+00	8.879768e-04	
129	8.489154e-02	-1.49916e+01	-5.00000e+00	8.906817e-04	
130	8.589154e-02	-1.49916e+01	-5.00000e+00	8.879775e-04	
131	8.689154e-02	-1.49916e+01	-5.00000e+00	8.906766e-04	
132	8.789154e-02	-1.49916e+01	-5.00000e+00	8.879810e-04	
133	8.889154e-02	-1.49916e+01	-5.00000e+00	8.906725e-04	
134	8.989154e-02	-1.49916e+01	-5.00000e+00	8.879849e-04	
135	9.089154e-02	-1.49916e+01	-5.00000e+00	8.906686e-04	
136	9.189154e-02	-1.49916e+01	-5.00000e+00	8.879888e-04	
137	9.289154e-02	-1.49916e+01	-5.00000e+00	8.906647e-04	
138	9.389154e-02	-1.49916e+01	-5.00000e+00	8.879927e-04	
139	9.489154e-02	-1.49916e+01	-5.00000e+00	8.906608e-04	
140	9.589154e-02	-1.49916e+01	-5.00000e+00	8.879966e-04	
141	9.689154e-02	-1.49916e+01	-5.00000e+00	8.906570e-04	
142	9.789154e-02	-1.49916e+01	-5.00000e+00	8.880005e-04	
143	9.889154e-02	-1.49916e+01	-5.00000e+00	8.906531e-04	
144	9.989154e-02	-1.49916e+01	-5.00000e+00	8.880044e-04	
145	1.000000e-01	-1.49916e+01	-5.00000e+00	8.906334e-04	

    * /home/saurabh/desktop/esim/examples/differentiator/differentiator.cir
    Transient Analysis  Fri Aug 27 15:21:30  2021
--------------------------------------------------------------------------------
Index   time            net-_c1-pad2_   net-_r2-pad1_   net-_x1-pad4_   
--------------------------------------------------------------------------------
0	0.000000e+00	0.000000e+00	-1.23185e-04	-1.50000e+01	
1	5.000000e-06	2.987229e-04	-1.23131e-04	-1.50000e+01	
2	5.362480e-06	3.200766e-04	-1.23129e-04	-1.50000e+01	
3	6.087439e-06	3.629867e-04	-1.23129e-04	-1.50000e+01	
4	7.537359e-06	4.611135e-04	-1.23129e-04	-1.50000e+01	
5	1.043720e-05	7.199045e-04	-1.23129e-04	-1.50000e+01	
6	1.623687e-05	1.486745e-03	-1.23129e-04	-1.50000e+01	
7	2.783623e-05	4.010292e-03	-1.23130e-04	-1.50000e+01	
8	5.103494e-05	1.296017e-02	-1.23132e-04	-1.50000e+01	
9	9.743235e-05	4.602946e-02	-1.23137e-04	-1.50000e+01	
10	1.902272e-04	1.694873e-01	-1.23147e-04	-1.50000e+01	
11	3.758169e-04	6.213516e-01	-1.23157e-04	-1.50000e+01	
12	5.000000e-04	1.060715e+00	-1.23159e-04	-1.50000e+01	
13	5.371179e-04	1.201669e+00	-1.23193e-04	-1.50000e+01	
14	6.113538e-04	1.473550e+00	-1.23193e-04	-1.50000e+01	
15	7.598255e-04	1.960947e+00	-1.23193e-04	-1.50000e+01	
16	1.056769e-03	2.746710e+00	-1.23192e-04	-1.50000e+01	
17	1.650656e-03	3.778522e+00	-1.23190e-04	-1.50000e+01	
18	2.650656e-03	4.592842e+00	-1.23187e-04	-1.50000e+01	
19	3.650656e-03	4.864282e+00	-1.23186e-04	-1.50000e+01	
20	4.650656e-03	4.954760e+00	-1.23186e-04	-1.50000e+01	
21	5.650656e-03	4.984921e+00	-1.23185e-04	-1.50000e+01	
22	6.650656e-03	4.994973e+00	-1.23186e-04	-1.50000e+01	
23	7.650656e-03	4.998325e+00	-1.23185e-04	-1.50000e+01	
24	8.650656e-03	4.999441e+00	-1.23186e-04	-1.50000e+01	
25	9.650656e-03	4.999814e+00	-1.23185e-04	-1.50000e+01	
26	1.065066e-02	4.999938e+00	-1.23186e-04	-1.50000e+01	
27	1.165066e-02	4.999980e+00	-1.23185e-04	-1.50000e+01	
28	1.265066e-02	4.999993e+00	-1.23186e-04	-1.50000e+01	
29	1.365066e-02	4.999998e+00	-1.23185e-04	-1.50000e+01	
30	1.465066e-02	4.999999e+00	-1.23186e-04	-1.50000e+01	
31	1.565066e-02	5.000000e+00	-1.23185e-04	-1.50000e+01	
32	1.665066e-02	5.000000e+00	-1.23186e-04	-1.50000e+01	
33	1.765066e-02	5.000000e+00	-1.23185e-04	-1.50000e+01	
34	1.865066e-02	5.000000e+00	-1.23186e-04	-1.50000e+01	
35	1.965066e-02	5.000000e+00	-1.23185e-04	-1.50000e+01	
36	2.065066e-02	5.000000e+00	-1.23186e-04	-1.50000e+01	
37	2.165066e-02	5.000000e+00	-1.23185e-04	-1.50000e+01	
38	2.265066e-02	5.000000e+00	-1.23186e-04	-1.50000e+01	
39	2.365066e-02	5.000000e+00	-1.23185e-04	-1.50000e+01	
40	2.465066e-02	5.000000e+00	-1.23186e-04	-1.50000e+01	
41	2.500000e-02	5.000000e+00	-1.23185e-04	-1.50000e+01	
42	2.505000e-02	4.952287e+00	-1.23289e-04	-1.50000e+01	
43	2.515000e-02	4.766399e+00	-1.23239e-04	-1.50000e+01	
44	2.535000e-02	3.899783e+00	-1.23239e-04	-1.50000e+01	
45	2.550000e-02	2.867274e+00	-1.23216e-04	-1.50000e+01	
46	2.552889e-02	2.646379e+00	-1.23171e-04	-1.50000e+01	
47	2.558668e-02	2.216914e+00	-1.23170e-04	-1.50000e+01	
48	2.570226e-02	1.428364e+00	-1.23174e-04	-1.50000e+01	
49	2.593342e-02	9.636184e-02	-1.23173e-04	-1.50000e+01	
50	2.639573e-02	-1.81738e+00	-1.23178e-04	-1.50000e+01	
51	2.709043e-02	-3.45835e+00	-1.23179e-04	-1.50000e+01	
52	2.794021e-02	-4.37777e+00	-1.23184e-04	-1.50000e+01	
53	2.894021e-02	-4.79259e+00	-1.23183e-04	-1.50000e+01	
54	2.994021e-02	-4.93087e+00	-1.23186e-04	-1.50000e+01	

Index   time            net-_c1-pad2_   net-_r2-pad1_   net-_x1-pad4_   
--------------------------------------------------------------------------------
55	3.094021e-02	-4.97695e+00	-1.23184e-04	-1.50000e+01	
56	3.194021e-02	-4.99232e+00	-1.23186e-04	-1.50000e+01	
57	3.294021e-02	-4.99744e+00	-1.23184e-04	-1.50000e+01	
58	3.394021e-02	-4.99915e+00	-1.23186e-04	-1.50000e+01	
59	3.494021e-02	-4.99971e+00	-1.23184e-04	-1.50000e+01	
60	3.594021e-02	-4.99991e+00	-1.23186e-04	-1.50000e+01	
61	3.694021e-02	-4.99997e+00	-1.23184e-04	-1.50000e+01	
62	3.794021e-02	-4.99999e+00	-1.23186e-04	-1.50000e+01	
63	3.894021e-02	-5.00000e+00	-1.23184e-04	-1.50000e+01	
64	3.994021e-02	-5.00000e+00	-1.23186e-04	-1.50000e+01	
65	4.094021e-02	-5.00000e+00	-1.23184e-04	-1.50000e+01	
66	4.194021e-02	-5.00000e+00	-1.23186e-04	-1.50000e+01	
67	4.294021e-02	-5.00000e+00	-1.23184e-04	-1.50000e+01	
68	4.394021e-02	-5.00000e+00	-1.23186e-04	-1.50000e+01	
69	4.494021e-02	-5.00000e+00	-1.23184e-04	-1.50000e+01	
70	4.594021e-02	-5.00000e+00	-1.23186e-04	-1.50000e+01	
71	4.694021e-02	-5.00000e+00	-1.23184e-04	-1.50000e+01	
72	4.794021e-02	-5.00000e+00	-1.23186e-04	-1.50000e+01	
73	4.894021e-02	-5.00000e+00	-1.23184e-04	-1.50000e+01	
74	4.994021e-02	-5.00000e+00	-1.23186e-04	-1.50000e+01	
75	5.000000e-02	-5.00000e+00	-1.23184e-04	-1.50000e+01	
76	5.002600e-02	-4.98673e+00	-1.23076e-04	-1.50000e+01	
77	5.007799e-02	-4.93473e+00	-1.23098e-04	-1.50000e+01	
78	5.018197e-02	-4.68425e+00	-1.23124e-04	-1.50000e+01	
79	5.038993e-02	-3.66640e+00	-1.23138e-04	-1.50000e+01	
80	5.050000e-02	-2.87712e+00	-1.23142e-04	-1.50000e+01	
81	5.052946e-02	-2.65175e+00	-1.23198e-04	-1.50000e+01	
82	5.058838e-02	-2.21380e+00	-1.23198e-04	-1.50000e+01	
83	5.070623e-02	-1.41100e+00	-1.23196e-04	-1.50000e+01	
84	5.094191e-02	-5.93016e-02	-1.23195e-04	-1.50000e+01	
85	5.141328e-02	1.870654e+00	-1.23193e-04	-1.50000e+01	
86	5.210795e-02	3.484106e+00	-1.23191e-04	-1.50000e+01	
87	5.296637e-02	4.394590e+00	-1.23188e-04	-1.50000e+01	
88	5.396637e-02	4.798197e+00	-1.23186e-04	-1.50000e+01	
89	5.496637e-02	4.932733e+00	-1.23186e-04	-1.50000e+01	
90	5.596637e-02	4.977577e+00	-1.23186e-04	-1.50000e+01	
91	5.696637e-02	4.992526e+00	-1.23185e-04	-1.50000e+01	
92	5.796637e-02	4.997508e+00	-1.23185e-04	-1.50000e+01	
93	5.896637e-02	4.999170e+00	-1.23185e-04	-1.50000e+01	
94	5.996637e-02	4.999723e+00	-1.23185e-04	-1.50000e+01	
95	6.096637e-02	4.999908e+00	-1.23185e-04	-1.50000e+01	
96	6.196637e-02	4.999969e+00	-1.23185e-04	-1.50000e+01	
97	6.296637e-02	4.999990e+00	-1.23185e-04	-1.50000e+01	
98	6.396637e-02	4.999996e+00	-1.23185e-04	-1.50000e+01	
99	6.496637e-02	4.999999e+00	-1.23185e-04	-1.50000e+01	
100	6.596637e-02	4.999999e+00	-1.23185e-04	-1.50000e+01	
101	6.696637e-02	5.000000e+00	-1.23185e-04	-1.50000e+01	
102	6.796637e-02	5.000000e+00	-1.23185e-04	-1.50000e+01	
103	6.896637e-02	5.000000e+00	-1.23185e-04	-1.50000e+01	
104	6.996637e-02	5.000000e+00	-1.23185e-04	-1.50000e+01	
105	7.096637e-02	5.000000e+00	-1.23185e-04	-1.50000e+01	
106	7.196637e-02	5.000000e+00	-1.23185e-04	-1.50000e+01	
107	7.296637e-02	5.000000e+00	-1.23185e-04	-1.50000e+01	
108	7.396637e-02	5.000000e+00	-1.23185e-04	-1.50000e+01	
109	7.496637e-02	5.000000e+00	-1.23185e-04	-1.50000e+01	
110	7.500000e-02	5.000000e+00	-1.23185e-04	-1.50000e+01	
111	7.502283e-02	4.989711e+00	-1.23294e-04	-1.50000e+01	
112	7.506848e-02	4.949436e+00	-1.23272e-04	-1.50000e+01	

Index   time            net-_c1-pad2_   net-_r2-pad1_   net-_x1-pad4_   
--------------------------------------------------------------------------------
113	7.515647e-02	4.764122e+00	-1.23247e-04	-1.50000e+01	
114	7.533246e-02	4.011424e+00	-1.23231e-04	-1.50000e+01	
115	7.550000e-02	2.877352e+00	-1.23224e-04	-1.50000e+01	
116	7.552790e-02	2.663614e+00	-1.23171e-04	-1.50000e+01	
117	7.558369e-02	2.247645e+00	-1.23170e-04	-1.50000e+01	
118	7.569527e-02	1.481645e+00	-1.23174e-04	-1.50000e+01	
119	7.591845e-02	1.803366e-01	-1.23173e-04	-1.50000e+01	
120	7.636479e-02	-1.71000e+00	-1.23178e-04	-1.50000e+01	
121	7.705953e-02	-3.40641e+00	-1.23179e-04	-1.50000e+01	
122	7.789154e-02	-4.34277e+00	-1.23184e-04	-1.50000e+01	
123	7.889154e-02	-4.78092e+00	-1.23183e-04	-1.50000e+01	
124	7.989154e-02	-4.92698e+00	-1.23186e-04	-1.50000e+01	
125	8.089154e-02	-4.97566e+00	-1.23184e-04	-1.50000e+01	
126	8.189154e-02	-4.99189e+00	-1.23186e-04	-1.50000e+01	
127	8.289154e-02	-4.99729e+00	-1.23184e-04	-1.50000e+01	
128	8.389154e-02	-4.99910e+00	-1.23186e-04	-1.50000e+01	
129	8.489154e-02	-4.99970e+00	-1.23184e-04	-1.50000e+01	
130	8.589154e-02	-4.99990e+00	-1.23186e-04	-1.50000e+01	
131	8.689154e-02	-4.99997e+00	-1.23184e-04	-1.50000e+01	
132	8.789154e-02	-4.99999e+00	-1.23186e-04	-1.50000e+01	
133	8.889154e-02	-4.99999e+00	-1.23184e-04	-1.50000e+01	
134	8.989154e-02	-5.00000e+00	-1.23186e-04	-1.50000e+01	
135	9.089154e-02	-5.00000e+00	-1.23184e-04	-1.50000e+01	
136	9.189154e-02	-5.00000e+00	-1.23186e-04	-1.50000e+01	
137	9.289154e-02	-5.00000e+00	-1.23184e-04	-1.50000e+01	
138	9.389154e-02	-5.00000e+00	-1.23186e-04	-1.50000e+01	
139	9.489154e-02	-5.00000e+00	-1.23184e-04	-1.50000e+01	
140	9.589154e-02	-5.00000e+00	-1.23186e-04	-1.50000e+01	
141	9.689154e-02	-5.00000e+00	-1.23184e-04	-1.50000e+01	
142	9.789154e-02	-5.00000e+00	-1.23186e-04	-1.50000e+01	
143	9.889154e-02	-5.00000e+00	-1.23184e-04	-1.50000e+01	
144	9.989154e-02	-5.00000e+00	-1.23186e-04	-1.50000e+01	
145	1.000000e-01	-5.00000e+00	-1.23184e-04	-1.50000e+01	

    * /home/saurabh/desktop/esim/examples/differentiator/differentiator.cir
    Transient Analysis  Fri Aug 27 15:21:30  2021
--------------------------------------------------------------------------------
Index   time            net-_x1-pad7_   out             x1.net-_c1-pad1 
--------------------------------------------------------------------------------
0	0.000000e+00	1.500000e+01	1.014535e-03	5.325589e-01	
1	5.000000e-06	1.500000e+01	5.677950e-04	5.312067e-01	
2	5.362480e-06	1.500000e+01	5.337927e-04	5.311046e-01	
3	6.087439e-06	1.500000e+01	4.633789e-04	5.308972e-01	
4	7.537359e-06	1.500000e+01	3.193190e-04	5.304761e-01	
5	1.043720e-05	1.500000e+01	3.180890e-05	5.296355e-01	
6	1.623687e-05	1.500000e+01	-5.40756e-04	5.279621e-01	
7	2.783623e-05	1.500000e+01	-1.67613e-03	5.246519e-01	
8	5.103494e-05	1.500000e+01	-3.90832e-03	5.182165e-01	
9	9.743235e-05	1.500000e+01	-8.22209e-03	5.062781e-01	
10	1.902272e-04	1.500000e+01	-1.62763e-02	4.863347e-01	
11	3.758169e-04	1.500000e+01	-3.03262e-02	4.573068e-01	
12	5.000000e-04	1.500000e+01	-3.83535e-02	4.428236e-01	
13	5.371179e-04	1.500000e+01	-3.69762e-02	4.452506e-01	
14	6.113538e-04	1.500000e+01	-3.42577e-02	4.501039e-01	
15	7.598255e-04	1.500000e+01	-2.93826e-02	4.591336e-01	
16	1.056769e-03	1.500000e+01	-2.15246e-02	4.748255e-01	
17	1.650656e-03	1.500000e+01	-1.12043e-02	4.985575e-01	
18	2.650656e-03	1.500000e+01	-3.05905e-03	5.206994e-01	
19	3.650656e-03	1.500000e+01	-3.42847e-04	5.285915e-01	
20	4.650656e-03	1.500000e+01	5.615947e-04	5.312359e-01	
21	5.650656e-03	1.500000e+01	8.640353e-04	5.321210e-01	
22	6.650656e-03	1.500000e+01	9.638899e-04	5.324115e-01	
23	7.650656e-03	1.500000e+01	9.981308e-04	5.325107e-01	
24	8.650656e-03	1.500000e+01	1.008590e-03	5.325419e-01	
25	9.650656e-03	1.500000e+01	1.013029e-03	5.325542e-01	
26	1.065066e-02	1.500000e+01	1.013557e-03	5.325564e-01	
27	1.165066e-02	1.500000e+01	1.014684e-03	5.325590e-01	
28	1.265066e-02	1.500000e+01	1.014110e-03	5.325580e-01	
29	1.365066e-02	1.500000e+01	1.014867e-03	5.325595e-01	
30	1.465066e-02	1.500000e+01	1.014172e-03	5.325582e-01	
31	1.565066e-02	1.500000e+01	1.014886e-03	5.325596e-01	
32	1.665066e-02	1.500000e+01	1.014180e-03	5.325582e-01	
