          * /home/saurabh/esim-workspace/cmosinvertor/cmosinvertor.cir
          Transient Analysis  Fri Aug 27 22:35:18  2021
--------------------------------------------------------------------------------
Index   time            a2#branch_1_0   v.x1.v1#branch  v.x2.v1#branch  
--------------------------------------------------------------------------------
0	0.000000e+00	0.000000e+00	-8.10296e-12	-1.44367e-11	
1	1.000000e-04	2.071329e-23	-8.10307e-12	-1.44364e-11	
2	2.000000e-04	-1.78619e-22	-8.10307e-12	-1.44364e-11	
3	4.000000e-04	-7.89869e-22	-8.10307e-12	-1.44364e-11	
4	8.000000e-04	-3.74017e-22	-8.10307e-12	-1.44364e-11	
5	1.600000e-03	-1.69715e-22	-8.10285e-12	-1.44362e-11	
6	3.200000e-03	1.122360e-22	-8.10307e-12	-1.44362e-11	
7	6.400000e-03	-4.45316e-23	-8.10307e-12	-1.44366e-11	
8	1.280000e-02	1.049701e-22	-8.10307e-12	-1.44368e-11	
9	2.280000e-02	-6.92227e-23	-8.10285e-12	-1.44363e-11	
10	3.280000e-02	1.110036e-22	-8.10285e-12	-1.44364e-11	
11	4.280000e-02	-1.25233e-22	-8.10285e-12	-1.44363e-11	
12	5.280000e-02	1.103673e-22	-8.10285e-12	-1.44363e-11	
13	6.280000e-02	-1.09215e-22	-8.10285e-12	-1.44364e-11	
14	7.280000e-02	1.323007e-22	-8.10285e-12	-1.44363e-11	
15	8.280000e-02	-1.55936e-22	-8.10285e-12	-1.44361e-11	
16	9.280000e-02	1.635328e-22	-8.10285e-12	-1.44363e-11	
17	1.028000e-01	-1.55800e-22	-8.10285e-12	-1.44364e-11	
18	1.128000e-01	1.670148e-22	-8.10285e-12	-1.44363e-11	
19	1.228000e-01	-1.47244e-22	-8.10285e-12	-1.44361e-11	
20	1.328000e-01	1.921584e-22	-8.10285e-12	-1.44363e-11	
21	1.428000e-01	-1.85486e-22	-8.10285e-12	-1.44364e-11	
22	1.528000e-01	2.040142e-22	-8.10285e-12	-1.44363e-11	
23	1.628000e-01	-1.90949e-22	-8.10285e-12	-1.44361e-11	
24	1.728000e-01	2.055416e-22	-8.10285e-12	-1.44363e-11	
25	1.828000e-01	-1.86677e-22	-8.10285e-12	-1.44364e-11	
26	1.928000e-01	2.317466e-22	-8.10285e-12	-1.44363e-11	
27	2.028000e-01	-2.25113e-22	-8.10285e-12	-1.44361e-11	
28	2.128000e-01	2.437318e-22	-8.10285e-12	-1.44363e-11	
29	2.228000e-01	-2.30705e-22	-8.10285e-12	-1.44364e-11	
30	2.328000e-01	2.452204e-22	-8.10285e-12	-1.44363e-11	
31	2.428000e-01	-2.26330e-22	-8.10285e-12	-1.44361e-11	
32	2.528000e-01	2.714771e-22	-8.10285e-12	-1.44363e-11	
33	2.628000e-01	-2.64870e-22	-8.10285e-12	-1.44364e-11	
34	2.728000e-01	2.966455e-22	-8.10285e-12	-1.44363e-11	
35	2.828000e-01	-2.83593e-22	-8.10285e-12	-1.44361e-11	
36	2.928000e-01	2.981858e-22	-8.10285e-12	-1.44363e-11	
37	3.028000e-01	-2.79321e-22	-8.10285e-12	-1.44364e-11	
38	3.128000e-01	3.111559e-22	-8.10285e-12	-1.44363e-11	
39	3.228000e-01	-3.04522e-22	-8.10285e-12	-1.44361e-11	
40	3.328000e-01	3.363760e-22	-8.10285e-12	-1.44363e-11	
41	3.428000e-01	-3.23349e-22	-8.10285e-12	-1.44364e-11	
42	3.528000e-01	3.378646e-22	-8.10285e-12	-1.44363e-11	
43	3.628000e-01	-3.18974e-22	-8.10285e-12	-1.44361e-11	
44	3.728000e-01	3.508865e-22	-8.10285e-12	-1.44363e-11	
45	3.828000e-01	-3.57514e-22	-8.10285e-12	-1.44364e-11	
46	3.928000e-01	3.760548e-22	-8.10285e-12	-1.44363e-11	
47	4.028000e-01	-3.63002e-22	-8.10285e-12	-1.44361e-11	
48	4.128000e-01	3.775951e-22	-8.10285e-12	-1.44363e-11	
49	4.228000e-01	-3.58731e-22	-8.10285e-12	-1.44364e-11	
50	4.328000e-01	3.905652e-22	-8.10285e-12	-1.44363e-11	
51	4.428000e-01	-3.97167e-22	-8.10285e-12	-1.44361e-11	
52	4.528000e-01	4.157854e-22	-8.10285e-12	-1.44363e-11	
53	4.628000e-01	-4.02759e-22	-8.10285e-12	-1.44364e-11	
54	4.728000e-01	4.172739e-22	-8.10285e-12	-1.44363e-11	

Index   time            a2#branch_1_0   v.x1.v1#branch  v.x2.v1#branch  
--------------------------------------------------------------------------------
55	4.828000e-01	-3.98383e-22	-8.10285e-12	-1.44361e-11	
56	4.928000e-01	4.435307e-22	-8.10285e-12	-1.44363e-11	
57	5.028000e-01	-4.36923e-22	-8.10285e-12	-1.44364e-11	
58	5.128000e-01	4.554641e-22	-8.10285e-12	-1.44363e-11	
59	5.228000e-01	-4.42411e-22	-8.10285e-12	-1.44361e-11	
60	5.328000e-01	4.570045e-22	-8.10285e-12	-1.44363e-11	
61	5.428000e-01	-4.38140e-22	-8.10285e-12	-1.44364e-11	
62	5.528000e-01	4.832095e-22	-8.10285e-12	-1.44363e-11	
63	5.628000e-01	-4.76576e-22	-8.10285e-12	-1.44361e-11	
64	5.728000e-01	4.951947e-22	-8.10285e-12	-1.44363e-11	
65	5.828000e-01	-4.82168e-22	-8.10285e-12	-1.44364e-11	
66	5.928000e-01	4.966833e-22	-8.10285e-12	-1.44363e-11	
67	6.028000e-01	-4.77793e-22	-8.10285e-12	-1.44361e-11	
68	6.128000e-01	5.229400e-22	-8.10285e-12	-1.44363e-11	
69	6.228000e-01	-5.16332e-22	-8.10285e-12	-1.44364e-11	
70	6.328000e-01	5.348735e-22	-8.10285e-12	-1.44363e-11	
71	6.428000e-01	-5.21821e-22	-8.10285e-12	-1.44361e-11	
72	6.528000e-01	5.364138e-22	-8.10285e-12	-1.44363e-11	
73	6.628000e-01	-5.17549e-22	-8.10285e-12	-1.44364e-11	
74	6.728000e-01	5.626188e-22	-8.10285e-12	-1.44363e-11	
75	6.828000e-01	-5.55985e-22	-8.10285e-12	-1.44361e-11	
76	6.928000e-01	5.878389e-22	-8.10285e-12	-1.44363e-11	
77	7.028000e-01	-5.74812e-22	-8.10285e-12	-1.44364e-11	
78	7.128000e-01	5.893275e-22	-8.10285e-12	-1.44363e-11	
79	7.228000e-01	-5.70437e-22	-8.10285e-12	-1.44361e-11	
80	7.328000e-01	6.023494e-22	-8.10285e-12	-1.44363e-11	
81	7.428000e-01	-5.95742e-22	-8.10285e-12	-1.44364e-11	
82	7.528000e-01	6.275177e-22	-8.10285e-12	-1.44363e-11	
83	7.628000e-01	-6.14465e-22	-8.10285e-12	-1.44361e-11	
84	7.728000e-01	6.290580e-22	-8.10285e-12	-1.44363e-11	
85	7.828000e-01	-6.10193e-22	-8.10285e-12	-1.44364e-11	
86	7.928000e-01	6.420282e-22	-8.10285e-12	-1.44363e-11	
87	8.028000e-01	-6.35395e-22	-8.10285e-12	-1.44361e-11	
88	8.128000e-01	6.672483e-22	-8.10285e-12	-1.44363e-11	
89	8.228000e-01	-6.54221e-22	-8.10285e-12	-1.44364e-11	
90	8.328000e-01	6.687368e-22	-8.10285e-12	-1.44363e-11	
91	8.428000e-01	-6.49846e-22	-8.10285e-12	-1.44361e-11	
92	8.528000e-01	6.817587e-22	-8.10285e-12	-1.44363e-11	
93	8.628000e-01	-6.88386e-22	-8.10285e-12	-1.44364e-11	
94	8.728000e-01	7.069270e-22	-8.10285e-12	-1.44363e-11	
95	8.828000e-01	-6.93874e-22	-8.10285e-12	-1.44361e-11	
96	8.928000e-01	7.084674e-22	-8.10285e-12	-1.44363e-11	
97	9.028000e-01	-6.89603e-22	-8.10285e-12	-1.44364e-11	
98	9.128000e-01	7.214375e-22	-8.10285e-12	-1.44363e-11	
99	9.228000e-01	-7.28039e-22	-8.10285e-12	-1.44361e-11	
100	9.328000e-01	7.466576e-22	-8.10285e-12	-1.44363e-11	
101	9.428000e-01	-7.33631e-22	-8.10285e-12	-1.44364e-11	
102	9.528000e-01	7.481462e-22	-8.10285e-12	-1.44363e-11	
103	9.628000e-01	-7.29256e-22	-8.10285e-12	-1.44361e-11	
104	9.728000e-01	7.744029e-22	-8.10285e-12	-1.44363e-11	
105	9.828000e-01	-7.67795e-22	-8.10285e-12	-1.44364e-11	
106	9.928000e-01	7.863364e-22	-8.10285e-12	-1.44363e-11	
107	1.002800e+00	-7.73284e-22	-8.10285e-12	-1.44361e-11	
108	1.012800e+00	7.878767e-22	-8.10285e-12	-1.44363e-11	
109	1.022800e+00	-7.69012e-22	-8.10285e-12	-1.44364e-11	
110	1.032800e+00	8.140817e-22	-8.10285e-12	-1.44363e-11	
111	1.042800e+00	-8.07448e-22	-8.10285e-12	-1.44361e-11	
112	1.052800e+00	8.260669e-22	-8.10285e-12	-1.44363e-11	

Index   time            a2#branch_1_0   v.x1.v1#branch  v.x2.v1#branch  
--------------------------------------------------------------------------------
113	1.062800e+00	-8.13040e-22	-8.10285e-12	-1.44364e-11	
114	1.072800e+00	8.275555e-22	-8.10285e-12	-1.44363e-11	
115	1.082800e+00	-8.08665e-22	-8.10285e-12	-1.44361e-11	
116	1.092800e+00	8.538123e-22	-8.10285e-12	-1.44363e-11	
117	1.102800e+00	-8.47205e-22	-8.10285e-12	-1.44364e-11	
118	1.112800e+00	8.657457e-22	-8.10285e-12	-1.44363e-11	
119	1.122800e+00	-8.52693e-22	-8.10285e-12	-1.44361e-11	
120	1.132800e+00	8.672861e-22	-8.10285e-12	-1.44363e-11	
121	1.142800e+00	-8.48421e-22	-8.10285e-12	-1.44364e-11	
122	1.152800e+00	8.934911e-22	-8.10285e-12	-1.44363e-11	
123	1.162800e+00	-8.86858e-22	-8.10285e-12	-1.44361e-11	
124	1.172800e+00	9.054763e-22	-8.10285e-12	-1.44363e-11	
125	1.182800e+00	-8.92449e-22	-8.10285e-12	-1.44364e-11	
126	1.192800e+00	9.069648e-22	-8.10285e-12	-1.44363e-11	
127	1.202800e+00	-8.88074e-22	-8.10285e-12	-1.44361e-11	
128	1.212800e+00	9.332216e-22	-8.10285e-12	-1.44363e-11	
129	1.222800e+00	-9.26614e-22	-8.10285e-12	-1.44364e-11	
130	1.232800e+00	9.583900e-22	-8.10285e-12	-1.44363e-11	
131	1.242800e+00	-9.45337e-22	-8.10285e-12	-1.44361e-11	
132	1.252800e+00	9.599303e-22	-8.10285e-12	-1.44363e-11	
133	1.262800e+00	-9.41066e-22	-8.10285e-12	-1.44364e-11	
134	1.272800e+00	9.729004e-22	-8.10285e-12	-1.44363e-11	
135	1.282800e+00	-9.66267e-22	-8.10285e-12	-1.44361e-11	
136	1.292800e+00	9.981205e-22	-8.10285e-12	-1.44363e-11	
137	1.302800e+00	-9.85094e-22	-8.10285e-12	-1.44364e-11	
138	1.312800e+00	9.996091e-22	-8.10285e-12	-1.44363e-11	
139	1.322800e+00	-9.80719e-22	-8.10285e-12	-1.44361e-11	
140	1.332800e+00	1.012631e-21	-8.10285e-12	-1.44363e-11	
141	1.342800e+00	-1.01926e-21	-8.10285e-12	-1.44364e-11	
142	1.352800e+00	1.037799e-21	-8.10285e-12	-1.44363e-11	
143	1.362800e+00	-1.02475e-21	-8.10285e-12	-1.44361e-11	
144	1.372800e+00	1.039340e-21	-8.10285e-12	-1.44363e-11	
145	1.382800e+00	-1.02047e-21	-8.10285e-12	-1.44364e-11	
146	1.392800e+00	1.052310e-21	-8.10285e-12	-1.44363e-11	
147	1.402800e+00	-1.05891e-21	-8.10285e-12	-1.44361e-11	
148	1.412800e+00	1.077530e-21	-8.10285e-12	-1.44363e-11	
149	1.422800e+00	-1.06450e-21	-8.10285e-12	-1.44364e-11	
150	1.432800e+00	1.079018e-21	-8.10285e-12	-1.44363e-11	
151	1.442800e+00	-1.06013e-21	-8.10285e-12	-1.44361e-11	
152	1.452800e+00	1.105275e-21	-8.10285e-12	-1.44363e-11	
153	1.462800e+00	-1.09867e-21	-8.10285e-12	-1.44364e-11	
154	1.472800e+00	1.117209e-21	-8.10285e-12	-1.44363e-11	
155	1.482800e+00	-1.10416e-21	-8.10285e-12	-1.44361e-11	
156	1.492800e+00	1.118749e-21	-8.10285e-12	-1.44363e-11	
157	1.502800e+00	-1.09988e-21	-8.10285e-12	-1.44364e-11	
158	1.512800e+00	1.144954e-21	-8.10285e-12	-1.44363e-11	
159	1.522800e+00	-1.13832e-21	-8.10285e-12	-1.44361e-11	
160	1.532800e+00	1.156939e-21	-8.10285e-12	-1.44363e-11	
161	1.542800e+00	-1.14391e-21	-8.10285e-12	-1.44364e-11	
162	1.552800e+00	1.158428e-21	-8.10285e-12	-1.44363e-11	
163	1.562800e+00	-1.13954e-21	-8.10285e-12	-1.44361e-11	
164	1.572800e+00	1.184685e-21	-8.10285e-12	-1.44363e-11	
165	1.582800e+00	-1.17808e-21	-8.10285e-12	-1.44364e-11	
166	1.592800e+00	1.196618e-21	-8.10285e-12	-1.44363e-11	
167	1.602800e+00	-1.18357e-21	-8.10285e-12	-1.44361e-11	
168	1.612800e+00	1.198158e-21	-8.10285e-12	-1.44363e-11	
169	1.622800e+00	-1.17929e-21	-8.10285e-12	-1.44364e-11	
170	1.632800e+00	1.224363e-21	-8.10285e-12	-1.44363e-11	

Index   time            a2#branch_1_0   v.x1.v1#branch  v.x2.v1#branch  
--------------------------------------------------------------------------------
171	1.642800e+00	-1.21773e-21	-8.10285e-12	-1.44361e-11	
172	1.652800e+00	1.249583e-21	-8.10285e-12	-1.44363e-11	
173	1.662800e+00	-1.23656e-21	-8.10285e-12	-1.44364e-11	
174	1.672800e+00	1.251072e-21	-8.10285e-12	-1.44363e-11	
175	1.682800e+00	-1.23218e-21	-8.10285e-12	-1.44361e-11	
176	1.692800e+00	1.264094e-21	-8.10285e-12	-1.44363e-11	
177	1.702800e+00	-1.25749e-21	-8.10285e-12	-1.44364e-11	
178	1.712800e+00	1.289262e-21	-8.10285e-12	-1.44363e-11	
179	1.722800e+00	-1.27621e-21	-8.10285e-12	-1.44361e-11	
180	1.732800e+00	1.290803e-21	-8.10285e-12	-1.44363e-11	
181	1.742800e+00	-1.27194e-21	-8.10285e-12	-1.44364e-11	
182	1.752800e+00	1.303773e-21	-8.10285e-12	-1.44363e-11	
183	1.762800e+00	-1.29714e-21	-8.10285e-12	-1.44361e-11	
184	1.772800e+00	1.328993e-21	-8.10285e-12	-1.44363e-11	
185	1.782800e+00	-1.31597e-21	-8.10285e-12	-1.44364e-11	
186	1.792800e+00	1.330481e-21	-8.10285e-12	-1.44363e-11	
187	1.802800e+00	-1.31159e-21	-8.10285e-12	-1.44361e-11	
188	1.812800e+00	1.343503e-21	-8.10285e-12	-1.44363e-11	
189	1.822800e+00	-1.35013e-21	-8.10285e-12	-1.44364e-11	
190	1.832800e+00	1.368672e-21	-8.10285e-12	-1.44363e-11	
191	1.842800e+00	-1.35562e-21	-8.10285e-12	-1.44361e-11	
192	1.852800e+00	1.370212e-21	-8.10285e-12	-1.44363e-11	
193	1.862800e+00	-1.35135e-21	-8.10285e-12	-1.44364e-11	
194	1.872800e+00	1.383182e-21	-8.10285e-12	-1.44363e-11	
195	1.882800e+00	-1.38978e-21	-8.10285e-12	-1.44361e-11	
196	1.892800e+00	1.408402e-21	-8.10285e-12	-1.44363e-11	
197	1.902800e+00	-1.39538e-21	-8.10285e-12	-1.44364e-11	
198	1.912800e+00	1.409891e-21	-8.10285e-12	-1.44363e-11	
199	1.922800e+00	-1.39100e-21	-8.10285e-12	-1.44361e-11	
200	1.932800e+00	1.436147e-21	-8.10285e-12	-1.44363e-11	
201	1.942800e+00	-1.42954e-21	-8.10285e-12	-1.44364e-11	
202	1.952800e+00	1.448081e-21	-8.10285e-12	-1.44363e-11	
203	1.962800e+00	-1.43503e-21	-8.10285e-12	-1.44361e-11	
204	1.972800e+00	1.449621e-21	-8.10285e-12	-1.44363e-11	
205	1.982800e+00	-1.43076e-21	-8.10285e-12	-1.44364e-11	
206	1.992800e+00	1.475826e-21	-8.10285e-12	-1.44363e-11	
207	2.000000e+00	-1.46724e-21	-8.10296e-12	-1.44362e-11	

          * /home/saurabh/esim-workspace/cmosinvertor/cmosinvertor.cir
          Transient Analysis  Fri Aug 27 22:35:18  2021
--------------------------------------------------------------------------------
Index   time            v.x3.v1#branch  v.x4.v1#branch  v.x5.v1#branch  
--------------------------------------------------------------------------------
0	0.000000e+00	-8.10296e-12	-1.44366e-11	-8.10296e-12	
1	1.000000e-04	-8.10269e-12	-1.44364e-11	-8.10269e-12	
2	2.000000e-04	-8.10269e-12	-1.44364e-11	-8.10269e-12	
3	4.000000e-04	-8.10269e-12	-1.44364e-11	-8.10269e-12	
4	8.000000e-04	-8.10266e-12	-1.44365e-11	-8.10266e-12	
5	1.600000e-03	-8.10276e-12	-1.44365e-11	-8.10276e-12	
6	3.200000e-03	-8.10291e-12	-1.44362e-11	-8.10291e-12	
7	6.400000e-03	-8.10294e-12	-1.44364e-11	-8.10294e-12	
8	1.280000e-02	-8.10317e-12	-1.44365e-11	-8.10317e-12	
9	2.280000e-02	-8.10307e-12	-1.44364e-11	-8.10307e-12	
10	3.280000e-02	-8.10307e-12	-1.44363e-11	-8.10307e-12	
11	4.280000e-02	-8.10307e-12	-1.44364e-11	-8.10307e-12	
12	5.280000e-02	-8.10307e-12	-1.44363e-11	-8.10307e-12	
13	6.280000e-02	-8.10307e-12	-1.44364e-11	-8.10307e-12	
14	7.280000e-02	-8.10307e-12	-1.44364e-11	-8.10307e-12	
15	8.280000e-02	-8.10307e-12	-1.44364e-11	-8.10307e-12	
16	9.280000e-02	-8.10307e-12	-1.44365e-11	-8.10307e-12	
17	1.028000e-01	-8.10307e-12	-1.44365e-11	-8.10307e-12	
18	1.128000e-01	-8.10307e-12	-1.44365e-11	-8.10307e-12	
19	1.228000e-01	-8.10307e-12	-1.44365e-11	-8.10307e-12	
20	1.328000e-01	-8.10307e-12	-1.44365e-11	-8.10307e-12	
21	1.428000e-01	-8.10307e-12	-1.44365e-11	-8.10307e-12	
22	1.528000e-01	-8.10307e-12	-1.44365e-11	-8.10307e-12	
23	1.628000e-01	-8.10307e-12	-1.44365e-11	-8.10307e-12	
24	1.728000e-01	-8.10307e-12	-1.44365e-11	-8.10307e-12	
25	1.828000e-01	-8.10307e-12	-1.44365e-11	-8.10307e-12	
26	1.928000e-01	-8.10307e-12	-1.44365e-11	-8.10307e-12	
27	2.028000e-01	-8.10307e-12	-1.44365e-11	-8.10307e-12	
28	2.128000e-01	-8.10307e-12	-1.44365e-11	-8.10307e-12	
29	2.228000e-01	-8.10307e-12	-1.44365e-11	-8.10307e-12	
30	2.328000e-01	-8.10307e-12	-1.44365e-11	-8.10307e-12	
31	2.428000e-01	-8.10307e-12	-1.44365e-11	-8.10307e-12	
32	2.528000e-01	-8.10307e-12	-1.44365e-11	-8.10307e-12	
33	2.628000e-01	-8.10307e-12	-1.44365e-11	-8.10307e-12	
34	2.728000e-01	-8.10307e-12	-1.44365e-11	-8.10307e-12	
35	2.828000e-01	-8.10307e-12	-1.44365e-11	-8.10307e-12	
36	2.928000e-01	-8.10307e-12	-1.44365e-11	-8.10307e-12	
37	3.028000e-01	-8.10307e-12	-1.44365e-11	-8.10307e-12	
38	3.128000e-01	-8.10307e-12	-1.44365e-11	-8.10307e-12	
39	3.228000e-01	-8.10307e-12	-1.44365e-11	-8.10307e-12	
40	3.328000e-01	-8.10307e-12	-1.44365e-11	-8.10307e-12	
41	3.428000e-01	-8.10307e-12	-1.44365e-11	-8.10307e-12	
42	3.528000e-01	-8.10307e-12	-1.44365e-11	-8.10307e-12	
43	3.628000e-01	-8.10307e-12	-1.44365e-11	-8.10307e-12	
44	3.728000e-01	-8.10307e-12	-1.44365e-11	-8.10307e-12	
45	3.828000e-01	-8.10307e-12	-1.44365e-11	-8.10307e-12	
46	3.928000e-01	-8.10307e-12	-1.44365e-11	-8.10307e-12	
47	4.028000e-01	-8.10307e-12	-1.44365e-11	-8.10307e-12	
48	4.128000e-01	-8.10307e-12	-1.44365e-11	-8.10307e-12	
49	4.228000e-01	-8.10307e-12	-1.44365e-11	-8.10307e-12	
50	4.328000e-01	-8.10307e-12	-1.44365e-11	-8.10307e-12	
51	4.428000e-01	-8.10307e-12	-1.44365e-11	-8.10307e-12	
52	4.528000e-01	-8.10307e-12	-1.44365e-11	-8.10307e-12	
53	4.628000e-01	-8.10307e-12	-1.44365e-11	-8.10307e-12	
54	4.728000e-01	-8.10307e-12	-1.44365e-11	-8.10307e-12	

Index   time            v.x3.v1#branch  v.x4.v1#branch  v.x5.v1#branch  
--------------------------------------------------------------------------------
55	4.828000e-01	-8.10307e-12	-1.44365e-11	-8.10307e-12	
56	4.928000e-01	-8.10307e-12	-1.44365e-11	-8.10307e-12	
57	5.028000e-01	-8.10307e-12	-1.44365e-11	-8.10307e-12	
58	5.128000e-01	-8.10307e-12	-1.44365e-11	-8.10307e-12	
59	5.228000e-01	-8.10307e-12	-1.44365e-11	-8.10307e-12	
60	5.328000e-01	-8.10307e-12	-1.44365e-11	-8.10307e-12	
61	5.428000e-01	-8.10307e-12	-1.44365e-11	-8.10307e-12	
62	5.528000e-01	-8.10307e-12	-1.44365e-11	-8.10307e-12	
63	5.628000e-01	-8.10307e-12	-1.44365e-11	-8.10307e-12	
64	5.728000e-01	-8.10307e-12	-1.44365e-11	-8.10307e-12	
65	5.828000e-01	-8.10307e-12	-1.44365e-11	-8.10307e-12	
66	5.928000e-01	-8.10307e-12	-1.44365e-11	-8.10307e-12	
67	6.028000e-01	-8.10307e-12	-1.44365e-11	-8.10307e-12	
68	6.128000e-01	-8.10307e-12	-1.44365e-11	-8.10307e-12	
69	6.228000e-01	-8.10307e-12	-1.44365e-11	-8.10307e-12	
70	6.328000e-01	-8.10307e-12	-1.44365e-11	-8.10307e-12	
71	6.428000e-01	-8.10307e-12	-1.44365e-11	-8.10307e-12	
72	6.528000e-01	-8.10307e-12	-1.44365e-11	-8.10307e-12	
73	6.628000e-01	-8.10307e-12	-1.44365e-11	-8.10307e-12	
74	6.728000e-01	-8.10307e-12	-1.44365e-11	-8.10307e-12	
75	6.828000e-01	-8.10307e-12	-1.44365e-11	-8.10307e-12	
76	6.928000e-01	-8.10307e-12	-1.44365e-11	-8.10307e-12	
77	7.028000e-01	-8.10307e-12	-1.44365e-11	-8.10307e-12	
78	7.128000e-01	-8.10307e-12	-1.44365e-11	-8.10307e-12	
79	7.228000e-01	-8.10307e-12	-1.44365e-11	-8.10307e-12	
80	7.328000e-01	-8.10307e-12	-1.44365e-11	-8.10307e-12	
81	7.428000e-01	-8.10307e-12	-1.44365e-11	-8.10307e-12	
82	7.528000e-01	-8.10307e-12	-1.44365e-11	-8.10307e-12	
83	7.628000e-01	-8.10307e-12	-1.44365e-11	-8.10307e-12	
84	7.728000e-01	-8.10307e-12	-1.44365e-11	-8.10307e-12	
85	7.828000e-01	-8.10307e-12	-1.44365e-11	-8.10307e-12	
86	7.928000e-01	-8.10307e-12	-1.44365e-11	-8.10307e-12	
87	8.028000e-01	-8.10307e-12	-1.44365e-11	-8.10307e-12	
88	8.128000e-01	-8.10307e-12	-1.44365e-11	-8.10307e-12	
89	8.228000e-01	-8.10307e-12	-1.44365e-11	-8.10307e-12	
90	8.328000e-01	-8.10307e-12	-1.44365e-11	-8.10307e-12	
91	8.428000e-01	-8.10307e-12	-1.44365e-11	-8.10307e-12	
92	8.528000e-01	-8.10307e-12	-1.44365e-11	-8.10307e-12	
93	8.628000e-01	-8.10307e-12	-1.44365e-11	-8.10307e-12	
94	8.728000e-01	-8.10307e-12	-1.44365e-11	-8.10307e-12	
95	8.828000e-01	-8.10307e-12	-1.44365e-11	-8.10307e-12	
96	8.928000e-01	-8.10307e-12	-1.44365e-11	-8.10307e-12	
97	9.028000e-01	-8.10307e-12	-1.44365e-11	-8.10307e-12	
98	9.128000e-01	-8.10307e-12	-1.44365e-11	-8.10307e-12	
99	9.228000e-01	-8.10307e-12	-1.44365e-11	-8.10307e-12	
100	9.328000e-01	-8.10307e-12	-1.44365e-11	-8.10307e-12	
101	9.428000e-01	-8.10307e-12	-1.44365e-11	-8.10307e-12	
102	9.528000e-01	-8.10307e-12	-1.44365e-11	-8.10307e-12	
103	9.628000e-01	-8.10307e-12	-1.44365e-11	-8.10307e-12	
104	9.728000e-01	-8.10307e-12	-1.44365e-11	-8.10307e-12	
105	9.828000e-01	-8.10307e-12	-1.44365e-11	-8.10307e-12	
106	9.928000e-01	-8.10307e-12	-1.44365e-11	-8.10307e-12	
107	1.002800e+00	-8.10307e-12	-1.44365e-11	-8.10307e-12	
108	1.012800e+00	-8.10307e-12	-1.44365e-11	-8.10307e-12	
109	1.022800e+00	-8.10307e-12	-1.44365e-11	-8.10307e-12	
110	1.032800e+00	-8.10307e-12	-1.44365e-11	-8.10307e-12	
111	1.042800e+00	-8.10307e-12	-1.44365e-11	-8.10307e-12	
112	1.052800e+00	-8.10307e-12	-1.44365e-11	-8.10307e-12	

Index   time            v.x3.v1#branch  v.x4.v1#branch  v.x5.v1#branch  
--------------------------------------------------------------------------------
113	1.062800e+00	-8.10307e-12	-1.44365e-11	-8.10307e-12	
114	1.072800e+00	-8.10307e-12	-1.44365e-11	-8.10307e-12	
115	1.082800e+00	-8.10307e-12	-1.44365e-11	-8.10307e-12	
116	1.092800e+00	-8.10307e-12	-1.44365e-11	-8.10307e-12	
117	1.102800e+00	-8.10307e-12	-1.44365e-11	-8.10307e-12	
118	1.112800e+00	-8.10307e-12	-1.44365e-11	-8.10307e-12	
119	1.122800e+00	-8.10307e-12	-1.44365e-11	-8.10307e-12	
