          * /home/saurabh/esim-workspace/cmosinvertor/cmosinvertor.cir
          Transient Analysis  Thu Sep 23 20:28:06  2021
--------------------------------------------------------------------------------
Index   time            a2#branch_1_0   v.x1.v1#branch  v.x2.v1#branch  
--------------------------------------------------------------------------------
0	0.000000e+00	0.000000e+00	-1.44364e-11	-8.10307e-12	
1	1.000000e-04	-5.92923e-21	-1.44364e-11	-8.10269e-12	
2	2.000000e-04	-4.65868e-21	-1.44364e-11	-8.10269e-12	
3	4.000000e-04	-5.50571e-21	-1.44364e-11	-8.10269e-12	
4	8.000000e-04	-1.39760e-20	-1.44365e-11	-8.10266e-12	
5	1.600000e-03	-6.67038e-21	-1.44364e-11	-8.10276e-12	
6	3.200000e-03	6.352747e-22	-1.44363e-11	-8.10291e-12	
7	6.400000e-03	-2.67345e-21	-1.44363e-11	-8.10294e-12	
8	1.280000e-02	-6.74979e-22	-1.44366e-11	-8.10317e-12	
9	2.280000e-02	-3.13667e-21	-1.44366e-11	-8.10307e-12	
10	3.280000e-02	4.195460e-21	-1.44365e-11	-8.10307e-12	
11	4.280000e-02	-3.60651e-21	-1.44366e-11	-8.10307e-12	
12	5.280000e-02	-1.06541e-21	-1.44367e-11	-8.10307e-12	
13	6.280000e-02	4.056494e-21	-1.44366e-11	-8.10307e-12	
14	7.280000e-02	-3.42122e-21	-1.44366e-11	-8.10307e-12	
15	8.280000e-02	-4.30134e-22	-1.44367e-11	-8.10307e-12	
16	9.280000e-02	3.487393e-21	-1.44365e-11	-8.10307e-12	
17	1.028000e-01	-2.58742e-21	-1.44366e-11	-8.10307e-12	
18	1.128000e-01	-1.26393e-21	-1.44367e-11	-8.10307e-12	
19	1.228000e-01	4.407218e-21	-1.44365e-11	-8.10307e-12	
20	1.328000e-01	-3.57342e-21	-1.44366e-11	-8.10307e-12	
21	1.428000e-01	-3.17637e-22	-1.44367e-11	-8.10307e-12	
22	1.528000e-01	3.401367e-21	-1.44365e-11	-8.10307e-12	
23	1.628000e-01	-2.56757e-21	-1.44366e-11	-8.10307e-12	
24	1.728000e-01	-1.32349e-21	-1.44367e-11	-8.10307e-12	
25	1.828000e-01	4.413836e-21	-1.44365e-11	-8.10307e-12	
26	1.928000e-01	-3.58666e-21	-1.44366e-11	-8.10307e-12	
27	2.028000e-01	-3.24255e-22	-1.44367e-11	-8.10307e-12	
28	2.128000e-01	3.394749e-21	-1.44365e-11	-8.10307e-12	
29	2.228000e-01	-2.56757e-21	-1.44366e-11	-8.10307e-12	
30	2.328000e-01	-1.33011e-21	-1.44367e-11	-8.10307e-12	
31	2.428000e-01	4.413836e-21	-1.44365e-11	-8.10307e-12	
32	2.528000e-01	-3.58666e-21	-1.44366e-11	-8.10307e-12	
33	2.628000e-01	-3.24255e-22	-1.44367e-11	-8.10307e-12	
34	2.728000e-01	3.394749e-21	-1.44365e-11	-8.10307e-12	
35	2.828000e-01	-2.56757e-21	-1.44366e-11	-8.10307e-12	
36	2.928000e-01	-1.33011e-21	-1.44367e-11	-8.10307e-12	
37	3.028000e-01	4.413836e-21	-1.44365e-11	-8.10307e-12	
38	3.128000e-01	-3.58666e-21	-1.44366e-11	-8.10307e-12	
39	3.228000e-01	-3.24255e-22	-1.44367e-11	-8.10307e-12	
40	3.328000e-01	3.394749e-21	-1.44365e-11	-8.10307e-12	
41	3.428000e-01	-2.56757e-21	-1.44366e-11	-8.10307e-12	
42	3.528000e-01	-1.33011e-21	-1.44367e-11	-8.10307e-12	
43	3.628000e-01	4.413836e-21	-1.44365e-11	-8.10307e-12	
44	3.728000e-01	-3.58666e-21	-1.44366e-11	-8.10307e-12	
45	3.828000e-01	-3.24255e-22	-1.44367e-11	-8.10307e-12	
46	3.928000e-01	3.394749e-21	-1.44365e-11	-8.10307e-12	
47	4.028000e-01	-2.56757e-21	-1.44366e-11	-8.10307e-12	
48	4.128000e-01	-1.33011e-21	-1.44367e-11	-8.10307e-12	
49	4.228000e-01	4.413836e-21	-1.44365e-11	-8.10307e-12	
50	4.328000e-01	-3.58666e-21	-1.44366e-11	-8.10307e-12	
51	4.428000e-01	-3.24255e-22	-1.44367e-11	-8.10307e-12	
52	4.528000e-01	3.394749e-21	-1.44365e-11	-8.10307e-12	
53	4.628000e-01	-2.56757e-21	-1.44366e-11	-8.10307e-12	
54	4.728000e-01	-1.33011e-21	-1.44367e-11	-8.10307e-12	

Index   time            a2#branch_1_0   v.x1.v1#branch  v.x2.v1#branch  
--------------------------------------------------------------------------------
55	4.828000e-01	4.413836e-21	-1.44365e-11	-8.10307e-12	
56	4.928000e-01	-3.58666e-21	-1.44366e-11	-8.10307e-12	
57	5.028000e-01	-3.24255e-22	-1.44367e-11	-8.10307e-12	
58	5.128000e-01	3.394749e-21	-1.44365e-11	-8.10307e-12	
59	5.228000e-01	-2.56757e-21	-1.44366e-11	-8.10307e-12	
60	5.328000e-01	-1.33011e-21	-1.44367e-11	-8.10307e-12	
61	5.428000e-01	4.413836e-21	-1.44365e-11	-8.10307e-12	
62	5.528000e-01	-3.58666e-21	-1.44366e-11	-8.10307e-12	
63	5.628000e-01	-3.24255e-22	-1.44367e-11	-8.10307e-12	
64	5.728000e-01	3.394749e-21	-1.44365e-11	-8.10307e-12	
65	5.828000e-01	-2.56757e-21	-1.44366e-11	-8.10307e-12	
66	5.928000e-01	-1.33011e-21	-1.44367e-11	-8.10307e-12	
67	6.028000e-01	4.413836e-21	-1.44365e-11	-8.10307e-12	
68	6.128000e-01	-3.58666e-21	-1.44366e-11	-8.10307e-12	
69	6.228000e-01	-3.24255e-22	-1.44367e-11	-8.10307e-12	
70	6.328000e-01	3.394749e-21	-1.44365e-11	-8.10307e-12	
71	6.428000e-01	-2.56757e-21	-1.44366e-11	-8.10307e-12	
72	6.528000e-01	-1.33011e-21	-1.44367e-11	-8.10307e-12	
73	6.628000e-01	4.413836e-21	-1.44365e-11	-8.10307e-12	
74	6.728000e-01	-3.58666e-21	-1.44366e-11	-8.10307e-12	
75	6.828000e-01	-3.24255e-22	-1.44367e-11	-8.10307e-12	
76	6.928000e-01	3.394749e-21	-1.44365e-11	-8.10307e-12	
77	7.028000e-01	-2.56757e-21	-1.44366e-11	-8.10307e-12	
78	7.128000e-01	-1.33011e-21	-1.44367e-11	-8.10307e-12	
79	7.228000e-01	4.413836e-21	-1.44365e-11	-8.10307e-12	
80	7.328000e-01	-3.58666e-21	-1.44366e-11	-8.10307e-12	
81	7.428000e-01	-3.24255e-22	-1.44367e-11	-8.10307e-12	
82	7.528000e-01	3.394749e-21	-1.44365e-11	-8.10307e-12	
83	7.628000e-01	-2.56757e-21	-1.44366e-11	-8.10307e-12	
84	7.728000e-01	-1.33011e-21	-1.44367e-11	-8.10307e-12	
85	7.828000e-01	4.413836e-21	-1.44365e-11	-8.10307e-12	
86	7.928000e-01	-3.58666e-21	-1.44366e-11	-8.10307e-12	
87	8.028000e-01	-3.24255e-22	-1.44367e-11	-8.10307e-12	
88	8.128000e-01	3.394749e-21	-1.44365e-11	-8.10307e-12	
89	8.228000e-01	-2.56757e-21	-1.44366e-11	-8.10307e-12	
90	8.328000e-01	-1.33011e-21	-1.44367e-11	-8.10307e-12	
91	8.428000e-01	4.413836e-21	-1.44365e-11	-8.10307e-12	
92	8.528000e-01	-3.58666e-21	-1.44366e-11	-8.10307e-12	
93	8.628000e-01	-3.24255e-22	-1.44367e-11	-8.10307e-12	
94	8.728000e-01	3.394749e-21	-1.44365e-11	-8.10307e-12	
95	8.828000e-01	-2.56757e-21	-1.44366e-11	-8.10307e-12	
96	8.928000e-01	-1.33011e-21	-1.44367e-11	-8.10307e-12	
97	9.028000e-01	4.413836e-21	-1.44365e-11	-8.10307e-12	
98	9.128000e-01	-3.58666e-21	-1.44366e-11	-8.10307e-12	
99	9.228000e-01	-3.24255e-22	-1.44367e-11	-8.10307e-12	
100	9.328000e-01	3.394749e-21	-1.44365e-11	-8.10307e-12	
101	9.428000e-01	-2.56757e-21	-1.44366e-11	-8.10307e-12	
102	9.528000e-01	-1.33011e-21	-1.44367e-11	-8.10307e-12	
103	9.628000e-01	4.413836e-21	-1.44365e-11	-8.10307e-12	
104	9.728000e-01	-3.58666e-21	-1.44366e-11	-8.10307e-12	
105	9.828000e-01	-3.24255e-22	-1.44367e-11	-8.10307e-12	
106	9.928000e-01	3.394749e-21	-1.44365e-11	-8.10307e-12	
107	1.002800e+00	-2.56757e-21	-1.44366e-11	-8.10307e-12	
108	1.012800e+00	-1.33011e-21	-1.44367e-11	-8.10307e-12	
109	1.022800e+00	4.413836e-21	-1.44365e-11	-8.10307e-12	
110	1.032800e+00	-3.58666e-21	-1.44366e-11	-8.10307e-12	
111	1.042800e+00	-3.24255e-22	-1.44367e-11	-8.10307e-12	
112	1.052800e+00	3.394749e-21	-1.44365e-11	-8.10307e-12	

Index   time            a2#branch_1_0   v.x1.v1#branch  v.x2.v1#branch  
--------------------------------------------------------------------------------
113	1.062800e+00	-2.56757e-21	-1.44366e-11	-8.10307e-12	
114	1.072800e+00	-1.33011e-21	-1.44367e-11	-8.10307e-12	
115	1.082800e+00	4.413836e-21	-1.44365e-11	-8.10307e-12	
116	1.092800e+00	-3.58666e-21	-1.44366e-11	-8.10307e-12	
117	1.102800e+00	-3.24255e-22	-1.44367e-11	-8.10307e-12	
118	1.112800e+00	3.394749e-21	-1.44365e-11	-8.10307e-12	
119	1.122800e+00	-2.56757e-21	-1.44366e-11	-8.10307e-12	
120	1.132800e+00	-1.33011e-21	-1.44367e-11	-8.10307e-12	
121	1.142800e+00	4.413836e-21	-1.44365e-11	-8.10307e-12	
122	1.152800e+00	-3.58666e-21	-1.44366e-11	-8.10307e-12	
123	1.162800e+00	-3.24255e-22	-1.44367e-11	-8.10307e-12	
124	1.172800e+00	3.394749e-21	-1.44365e-11	-8.10307e-12	
125	1.182800e+00	-2.56757e-21	-1.44366e-11	-8.10307e-12	
126	1.192800e+00	-1.33011e-21	-1.44367e-11	-8.10307e-12	
127	1.202800e+00	4.413836e-21	-1.44365e-11	-8.10307e-12	
128	1.212800e+00	-3.58666e-21	-1.44366e-11	-8.10307e-12	
129	1.222800e+00	-3.24255e-22	-1.44367e-11	-8.10307e-12	
130	1.232800e+00	3.394749e-21	-1.44365e-11	-8.10307e-12	
131	1.242800e+00	-2.56757e-21	-1.44366e-11	-8.10307e-12	
132	1.252800e+00	-1.33011e-21	-1.44367e-11	-8.10307e-12	
133	1.262800e+00	4.413836e-21	-1.44365e-11	-8.10307e-12	
134	1.272800e+00	-3.58666e-21	-1.44366e-11	-8.10307e-12	
135	1.282800e+00	-3.24255e-22	-1.44367e-11	-8.10307e-12	
136	1.292800e+00	3.394749e-21	-1.44365e-11	-8.10307e-12	
137	1.302800e+00	-2.56757e-21	-1.44366e-11	-8.10307e-12	
138	1.312800e+00	-1.33011e-21	-1.44367e-11	-8.10307e-12	
139	1.322800e+00	4.413836e-21	-1.44365e-11	-8.10307e-12	
140	1.332800e+00	-3.58666e-21	-1.44366e-11	-8.10307e-12	
141	1.342800e+00	-3.24255e-22	-1.44367e-11	-8.10307e-12	
142	1.352800e+00	3.394749e-21	-1.44365e-11	-8.10307e-12	
143	1.362800e+00	-2.56757e-21	-1.44366e-11	-8.10307e-12	
144	1.372800e+00	-1.33011e-21	-1.44367e-11	-8.10307e-12	
145	1.382800e+00	4.413836e-21	-1.44365e-11	-8.10307e-12	
146	1.392800e+00	-3.58666e-21	-1.44366e-11	-8.10307e-12	
147	1.402800e+00	-3.24255e-22	-1.44367e-11	-8.10307e-12	
148	1.412800e+00	3.394749e-21	-1.44365e-11	-8.10307e-12	
149	1.422800e+00	-2.56757e-21	-1.44366e-11	-8.10307e-12	
150	1.432800e+00	-1.33011e-21	-1.44367e-11	-8.10307e-12	
151	1.442800e+00	4.413836e-21	-1.44365e-11	-8.10307e-12	
152	1.452800e+00	-3.58666e-21	-1.44366e-11	-8.10307e-12	
153	1.462800e+00	-3.24255e-22	-1.44367e-11	-8.10307e-12	
154	1.472800e+00	3.394749e-21	-1.44365e-11	-8.10307e-12	
155	1.482800e+00	-2.56757e-21	-1.44366e-11	-8.10307e-12	
156	1.492800e+00	-1.33011e-21	-1.44367e-11	-8.10307e-12	
157	1.502800e+00	4.413836e-21	-1.44365e-11	-8.10307e-12	
158	1.512800e+00	-3.58666e-21	-1.44366e-11	-8.10307e-12	
159	1.522800e+00	-3.24255e-22	-1.44367e-11	-8.10307e-12	
160	1.532800e+00	3.394749e-21	-1.44365e-11	-8.10307e-12	
161	1.542800e+00	-2.56757e-21	-1.44366e-11	-8.10307e-12	
162	1.552800e+00	-1.33011e-21	-1.44367e-11	-8.10307e-12	
163	1.562800e+00	4.413836e-21	-1.44365e-11	-8.10307e-12	
164	1.572800e+00	-3.58666e-21	-1.44366e-11	-8.10307e-12	
165	1.582800e+00	-3.24255e-22	-1.44367e-11	-8.10307e-12	
166	1.592800e+00	3.394749e-21	-1.44365e-11	-8.10307e-12	
167	1.602800e+00	-2.56757e-21	-1.44366e-11	-8.10307e-12	
168	1.612800e+00	-1.33011e-21	-1.44367e-11	-8.10307e-12	
169	1.622800e+00	4.413836e-21	-1.44365e-11	-8.10307e-12	
170	1.632800e+00	-3.58666e-21	-1.44366e-11	-8.10307e-12	

Index   time            a2#branch_1_0   v.x1.v1#branch  v.x2.v1#branch  
--------------------------------------------------------------------------------
171	1.642800e+00	-3.24255e-22	-1.44367e-11	-8.10307e-12	
172	1.652800e+00	3.394749e-21	-1.44365e-11	-8.10307e-12	
173	1.662800e+00	-2.56757e-21	-1.44366e-11	-8.10307e-12	
174	1.672800e+00	-1.33011e-21	-1.44367e-11	-8.10307e-12	
175	1.682800e+00	4.413836e-21	-1.44365e-11	-8.10307e-12	
176	1.692800e+00	-3.58666e-21	-1.44366e-11	-8.10307e-12	
177	1.702800e+00	-3.24255e-22	-1.44367e-11	-8.10307e-12	
178	1.712800e+00	3.394749e-21	-1.44365e-11	-8.10307e-12	
179	1.722800e+00	-2.56757e-21	-1.44366e-11	-8.10307e-12	
180	1.732800e+00	-1.33011e-21	-1.44367e-11	-8.10307e-12	
181	1.742800e+00	4.413836e-21	-1.44365e-11	-8.10307e-12	
182	1.752800e+00	-3.58666e-21	-1.44366e-11	-8.10307e-12	
183	1.762800e+00	-3.24255e-22	-1.44367e-11	-8.10307e-12	
184	1.772800e+00	3.394749e-21	-1.44365e-11	-8.10307e-12	
185	1.782800e+00	-2.56757e-21	-1.44366e-11	-8.10307e-12	
186	1.792800e+00	-1.33011e-21	-1.44367e-11	-8.10307e-12	
187	1.802800e+00	4.413836e-21	-1.44365e-11	-8.10307e-12	
188	1.812800e+00	-3.58666e-21	-1.44366e-11	-8.10307e-12	
189	1.822800e+00	-3.24255e-22	-1.44367e-11	-8.10307e-12	
190	1.832800e+00	3.394749e-21	-1.44365e-11	-8.10307e-12	
191	1.842800e+00	-2.56757e-21	-1.44366e-11	-8.10307e-12	
192	1.852800e+00	-1.33011e-21	-1.44367e-11	-8.10307e-12	
193	1.862800e+00	4.413836e-21	-1.44365e-11	-8.10307e-12	
194	1.872800e+00	-3.58666e-21	-1.44366e-11	-8.10307e-12	
195	1.882800e+00	-3.24255e-22	-1.44367e-11	-8.10307e-12	
196	1.892800e+00	3.394749e-21	-1.44365e-11	-8.10307e-12	
197	1.902800e+00	-2.56757e-21	-1.44366e-11	-8.10307e-12	
198	1.912800e+00	-1.33011e-21	-1.44367e-11	-8.10307e-12	
199	1.922800e+00	4.413836e-21	-1.44365e-11	-8.10307e-12	
200	1.932800e+00	-3.58666e-21	-1.44366e-11	-8.10307e-12	
201	1.942800e+00	-3.24255e-22	-1.44367e-11	-8.10307e-12	
202	1.952800e+00	3.394749e-21	-1.44365e-11	-8.10307e-12	
203	1.962800e+00	-2.56757e-21	-1.44366e-11	-8.10307e-12	
204	1.972800e+00	-1.33011e-21	-1.44367e-11	-8.10307e-12	
205	1.982800e+00	4.413836e-21	-1.44365e-11	-8.10307e-12	
206	1.992800e+00	-3.58666e-21	-1.44366e-11	-8.10307e-12	
207	2.000000e+00	5.585123e-21	-1.44364e-11	-8.10291e-12	

          * /home/saurabh/esim-workspace/cmosinvertor/cmosinvertor.cir
          Transient Analysis  Thu Sep 23 20:28:06  2021
--------------------------------------------------------------------------------
Index   time            v.x3.v1#branch  v.x4.v1#branch  v.x5.v1#branch  
--------------------------------------------------------------------------------
0	0.000000e+00	-1.44365e-11	-8.10296e-12	-1.44367e-11	
1	1.000000e-04	-1.44364e-11	-8.10269e-12	-1.44364e-11	
2	2.000000e-04	-1.44364e-11	-8.10269e-12	-1.44364e-11	
3	4.000000e-04	-1.44364e-11	-8.10269e-12	-1.44364e-11	
4	8.000000e-04	-1.44365e-11	-8.10266e-12	-1.44365e-11	
5	1.600000e-03	-1.44365e-11	-8.10276e-12	-1.44364e-11	
6	3.200000e-03	-1.44362e-11	-8.10291e-12	-1.44364e-11	
7	6.400000e-03	-1.44364e-11	-8.10294e-12	-1.44364e-11	
8	1.280000e-02	-1.44365e-11	-8.10317e-12	-1.44365e-11	
9	2.280000e-02	-1.44365e-11	-8.10307e-12	-1.44365e-11	
10	3.280000e-02	-1.44364e-11	-8.10307e-12	-1.44364e-11	
11	4.280000e-02	-1.44364e-11	-8.10307e-12	-1.44364e-11	
12	5.280000e-02	-1.44364e-11	-8.10307e-12	-1.44365e-11	
13	6.280000e-02	-1.44363e-11	-8.10307e-12	-1.44364e-11	
14	7.280000e-02	-1.44364e-11	-8.10307e-12	-1.44364e-11	
15	8.280000e-02	-1.44364e-11	-8.10307e-12	-1.44365e-11	
16	9.280000e-02	-1.44364e-11	-8.10307e-12	-1.44364e-11	
17	1.028000e-01	-1.44361e-11	-8.10307e-12	-1.44364e-11	
18	1.128000e-01	-1.44363e-11	-8.10307e-12	-1.44365e-11	
19	1.228000e-01	-1.44364e-11	-8.10307e-12	-1.44364e-11	
20	1.328000e-01	-1.44364e-11	-8.10307e-12	-1.44364e-11	
21	1.428000e-01	-1.44364e-11	-8.10307e-12	-1.44365e-11	
22	1.528000e-01	-1.44365e-11	-8.10307e-12	-1.44364e-11	
23	1.628000e-01	-1.44364e-11	-8.10307e-12	-1.44364e-11	
24	1.728000e-01	-1.44361e-11	-8.10307e-12	-1.44365e-11	
25	1.828000e-01	-1.44364e-11	-8.10307e-12	-1.44364e-11	
26	1.928000e-01	-1.44364e-11	-8.10307e-12	-1.44364e-11	
27	2.028000e-01	-1.44364e-11	-8.10307e-12	-1.44365e-11	
28	2.128000e-01	-1.44364e-11	-8.10307e-12	-1.44364e-11	
29	2.228000e-01	-1.44365e-11	-8.10307e-12	-1.44364e-11	
30	2.328000e-01	-1.44364e-11	-8.10307e-12	-1.44365e-11	
31	2.428000e-01	-1.44361e-11	-8.10307e-12	-1.44364e-11	
32	2.528000e-01	-1.44364e-11	-8.10307e-12	-1.44364e-11	
33	2.628000e-01	-1.44364e-11	-8.10307e-12	-1.44365e-11	
34	2.728000e-01	-1.44364e-11	-8.10307e-12	-1.44364e-11	
35	2.828000e-01	-1.44364e-11	-8.10307e-12	-1.44364e-11	
36	2.928000e-01	-1.44365e-11	-8.10307e-12	-1.44365e-11	
37	3.028000e-01	-1.44364e-11	-8.10307e-12	-1.44364e-11	
38	3.128000e-01	-1.44361e-11	-8.10307e-12	-1.44364e-11	
39	3.228000e-01	-1.44364e-11	-8.10307e-12	-1.44365e-11	
40	3.328000e-01	-1.44364e-11	-8.10307e-12	-1.44364e-11	
41	3.428000e-01	-1.44364e-11	-8.10307e-12	-1.44364e-11	
42	3.528000e-01	-1.44364e-11	-8.10307e-12	-1.44365e-11	
43	3.628000e-01	-1.44365e-11	-8.10307e-12	-1.44364e-11	
44	3.728000e-01	-1.44364e-11	-8.10307e-12	-1.44364e-11	
45	3.828000e-01	-1.44361e-11	-8.10307e-12	-1.44365e-11	
46	3.928000e-01	-1.44364e-11	-8.10307e-12	-1.44364e-11	
47	4.028000e-01	-1.44364e-11	-8.10307e-12	-1.44364e-11	
48	4.128000e-01	-1.44364e-11	-8.10307e-12	-1.44365e-11	
49	4.228000e-01	-1.44364e-11	-8.10307e-12	-1.44364e-11	
50	4.328000e-01	-1.44365e-11	-8.10307e-12	-1.44364e-11	
51	4.428000e-01	-1.44364e-11	-8.10307e-12	-1.44365e-11	
52	4.528000e-01	-1.44361e-11	-8.10307e-12	-1.44364e-11	
53	4.628000e-01	-1.44364e-11	-8.10307e-12	-1.44364e-11	
54	4.728000e-01	-1.44364e-11	-8.10307e-12	-1.44365e-11	

Index   time            v.x3.v1#branch  v.x4.v1#branch  v.x5.v1#branch  
--------------------------------------------------------------------------------
55	4.828000e-01	-1.44364e-11	-8.10307e-12	-1.44364e-11	
56	4.928000e-01	-1.44364e-11	-8.10307e-12	-1.44364e-11	
57	5.028000e-01	-1.44365e-11	-8.10307e-12	-1.44365e-11	
58	5.128000e-01	-1.44364e-11	-8.10307e-12	-1.44364e-11	
59	5.228000e-01	-1.44361e-11	-8.10307e-12	-1.44364e-11	
60	5.328000e-01	-1.44364e-11	-8.10307e-12	-1.44365e-11	
61	5.428000e-01	-1.44364e-11	-8.10307e-12	-1.44364e-11	
62	5.528000e-01	-1.44364e-11	-8.10307e-12	-1.44364e-11	
63	5.628000e-01	-1.44364e-11	-8.10307e-12	-1.44365e-11	
64	5.728000e-01	-1.44365e-11	-8.10307e-12	-1.44364e-11	
65	5.828000e-01	-1.44364e-11	-8.10307e-12	-1.44364e-11	
66	5.928000e-01	-1.44361e-11	-8.10307e-12	-1.44365e-11	
67	6.028000e-01	-1.44364e-11	-8.10307e-12	-1.44364e-11	
68	6.128000e-01	-1.44364e-11	-8.10307e-12	-1.44364e-11	
69	6.228000e-01	-1.44364e-11	-8.10307e-12	-1.44365e-11	
70	6.328000e-01	-1.44364e-11	-8.10307e-12	-1.44364e-11	
71	6.428000e-01	-1.44365e-11	-8.10307e-12	-1.44364e-11	
72	6.528000e-01	-1.44364e-11	-8.10307e-12	-1.44365e-11	
73	6.628000e-01	-1.44361e-11	-8.10307e-12	-1.44364e-11	
74	6.728000e-01	-1.44364e-11	-8.10307e-12	-1.44364e-11	
75	6.828000e-01	-1.44364e-11	-8.10307e-12	-1.44365e-11	
76	6.928000e-01	-1.44364e-11	-8.10307e-12	-1.44364e-11	
77	7.028000e-01	-1.44364e-11	-8.10307e-12	-1.44364e-11	
78	7.128000e-01	-1.44365e-11	-8.10307e-12	-1.44365e-11	
79	7.228000e-01	-1.44364e-11	-8.10307e-12	-1.44364e-11	
80	7.328000e-01	-1.44361e-11	-8.10307e-12	-1.44364e-11	
81	7.428000e-01	-1.44364e-11	-8.10307e-12	-1.44365e-11	
82	7.528000e-01	-1.44364e-11	-8.10307e-12	-1.44364e-11	
83	7.628000e-01	-1.44364e-11	-8.10307e-12	-1.44364e-11	
84	7.728000e-01	-1.44364e-11	-8.10307e-12	-1.44365e-11	
85	7.828000e-01	-1.44365e-11	-8.10307e-12	-1.44364e-11	
86	7.928000e-01	-1.44364e-11	-8.10307e-12	-1.44364e-11	
87	8.028000e-01	-1.44361e-11	-8.10307e-12	-1.44365e-11	
88	8.128000e-01	-1.44364e-11	-8.10307e-12	-1.44364e-11	
89	8.228000e-01	-1.44364e-11	-8.10307e-12	-1.44364e-11	
90	8.328000e-01	-1.44364e-11	-8.10307e-12	-1.44365e-11	
91	8.428000e-01	-1.44364e-11	-8.10307e-12	-1.44364e-11	
92	8.528000e-01	-1.44365e-11	-8.10307e-12	-1.44364e-11	
93	8.628000e-01	-1.44364e-11	-8.10307e-12	-1.44365e-11	
94	8.728000e-01	-1.44361e-11	-8.10307e-12	-1.44364e-11	
95	8.828000e-01	-1.44364e-11	-8.10307e-12	-1.44364e-11	
96	8.928000e-01	-1.44364e-11	-8.10307e-12	-1.44365e-11	
97	9.028000e-01	-1.44364e-11	-8.10307e-12	-1.44364e-11	
98	9.128000e-01	-1.44364e-11	-8.10307e-12	-1.44364e-11	
99	9.228000e-01	-1.44365e-11	-8.10307e-12	-1.44365e-11	
100	9.328000e-01	-1.44364e-11	-8.10307e-12	-1.44364e-11	
101	9.428000e-01	-1.44361e-11	-8.10307e-12	-1.44364e-11	
102	9.528000e-01	-1.44364e-11	-8.10307e-12	-1.44365e-11	
103	9.628000e-01	-1.44364e-11	-8.10307e-12	-1.44364e-11	
104	9.728000e-01	-1.44364e-11	-8.10307e-12	-1.44364e-11	
105	9.828000e-01	-1.44364e-11	-8.10307e-12	-1.44365e-11	
106	9.928000e-01	-1.44365e-11	-8.10307e-12	-1.44364e-11	
107	1.002800e+00	-1.44364e-11	-8.10307e-12	-1.44364e-11	
108	1.012800e+00	-1.44361e-11	-8.10307e-12	-1.44365e-11	
109	1.022800e+00	-1.44364e-11	-8.10307e-12	-1.44364e-11	
110	1.032800e+00	-1.44364e-11	-8.10307e-12	-1.44364e-11	
111	1.042800e+00	-1.44364e-11	-8.10307e-12	-1.44365e-11	
112	1.052800e+00	-1.44364e-11	-8.10307e-12	-1.44364e-11	

Index   time            v.x3.v1#branch  v.x4.v1#branch  v.x5.v1#branch  
--------------------------------------------------------------------------------
113	1.062800e+00	-1.44365e-11	-8.10307e-12	-1.44364e-11	
114	1.072800e+00	-1.44364e-11	-8.10307e-12	-1.44365e-11	
115	1.082800e+00	-1.44361e-11	-8.10307e-12	-1.44364e-11	
116	1.092800e+00	-1.44364e-11	-8.10307e-12	-1.44364e-11	
117	1.102800e+00	-1.44364e-11	-8.10307e-12	-1.44365e-11	
118	1.112800e+00	-1.44364e-11	-8.10307e-12	-1.44364e-11	
119	1.122800e+00	-1.44364e-11	-8.10307e-12	-1.44364e-11	
